<Qucs Dataset 0.0.18>
<indep frequency 200>
  +3.45000000000e+05
  +3.53271621339e+05
  +3.61741560705e+05
  +3.70414572916e+05
  +3.79295526787e+05
  +3.88389407868e+05
  +3.97701321242e+05
  +4.07236494388e+05
  +4.17000280118e+05
  +4.26998159582e+05
  +4.37235745346e+05
  +4.47718784538e+05
  +4.58453162080e+05
  +4.69444903988e+05
  +4.80700180757e+05
  +4.92225310823e+05
  +5.04026764111e+05
  +5.16111165668e+05
  +5.28485299382e+05
  +5.41156111786e+05
  +5.54130715966e+05
  +5.67416395544e+05
  +5.81020608777e+05
  +5.94950992736e+05
  +6.09215367597e+05
  +6.23821741031e+05
  +6.38778312697e+05
  +6.54093478847e+05
  +6.69775837042e+05
  +6.85834190972e+05
  +7.02277555404e+05
  +7.19115161239e+05
  +7.36356460696e+05
  +7.54011132618e+05
  +7.72089087906e+05
  +7.90600475080e+05
  +8.09555685979e+05
  +8.28965361593e+05
  +8.48840398040e+05
  +8.69191952677e+05
  +8.90031450367e+05
  +9.11370589895e+05
  +9.33221350529e+05
  +9.55595998752e+05
  +9.78507095142e+05
  +1.00196750143e+06
  +1.02599038770e+06
  +1.05058923983e+06
  +1.07577786700e+06
  +1.10157040950e+06
  +1.12798134662e+06
  +1.15502550481e+06
  +1.18271806600e+06
  +1.21107457613e+06
  +1.24011095383e+06
  +1.26984349942e+06
  +1.30028890402e+06
  +1.33146425893e+06
  +1.36338706524e+06
  +1.39607524362e+06
  +1.42954714442e+06
  +1.46382155794e+06
  +1.49891772500e+06
  +1.53485534772e+06
  +1.57165460060e+06
  +1.60933614186e+06
  +1.64792112496e+06
  +1.68743121059e+06
  +1.72788857873e+06
  +1.76931594117e+06
  +1.81173655419e+06
  +1.85517423171e+06
  +1.89965335855e+06
  +1.94519890422e+06
  +1.99183643687e+06
  +2.03959213767e+06
  +2.08849281549e+06
  +2.13856592198e+06
  +2.18983956695e+06
  +2.24234253417e+06
  +2.29610429752e+06
  +2.35115503753e+06
  +2.40752565833e+06
  +2.46524780503e+06
  +2.52435388140e+06
  +2.58487706816e+06
  +2.64685134154e+06
  +2.71031149237e+06
  +2.77529314563e+06
  +2.84183278043e+06
  +2.90996775048e+06
  +2.97973630509e+06
  +3.05117761061e+06
  +3.12433177244e+06
  +3.19923985754e+06
  +3.27594391746e+06
  +3.35448701199e+06
  +3.43491323329e+06
  +3.51726773068e+06
  +3.60159673594e+06
  +3.68794758932e+06
  +3.77636876606e+06
  +3.86690990365e+06
  +3.95962182966e+06
  +4.05455659030e+06
  +4.15176747961e+06
  +4.25130906940e+06
  +4.35323723988e+06
  +4.45760921103e+06
  +4.56448357471e+06
  +4.67392032757e+06
  +4.78598090472e+06
  +4.90072821422e+06
  +5.01822667240e+06
  +5.13854224002e+06
  +5.26174245927e+06
  +5.38789649175e+06
  +5.51707515723e+06
  +5.64935097346e+06
  +5.78479819683e+06
  +5.92349286409e+06
  +6.06551283503e+06
  +6.21093783618e+06
  +6.35984950557e+06
  +6.51233143856e+06
  +6.66846923477e+06
  +6.82835054614e+06
  +6.99206512609e+06
  +7.15970488001e+06
  +7.33136391671e+06
  +7.50713860140e+06
  +7.68712760965e+06
  +7.87143198290e+06
  +8.06015518509e+06
  +8.25340316081e+06
  +8.45128439473e+06
  +8.65390997253e+06
  +8.86139364323e+06
  +9.07385188309e+06
  +9.29140396095e+06
  +9.51417200521e+06
  +9.74228107240e+06
  +9.97585921734e+06
  +1.02150375651e+07
  +1.04599503845e+07
  +1.07107351637e+07
  +1.09675326869e+07
  +1.12304871142e+07
  +1.14997460616e+07
  +1.17754606846e+07
  +1.20577857625e+07
  +1.23468797857e+07
  +1.26429050445e+07
  +1.29460277203e+07
  +1.32564179787e+07
  +1.35742500652e+07
  +1.38997024028e+07
  +1.42329576927e+07
  +1.45742030161e+07
  +1.49236299397e+07
  +1.52814346234e+07
  +1.56478179298e+07
  +1.60229855376e+07
  +1.64071480567e+07
  +1.68005211465e+07
  +1.72033256370e+07
  +1.76157876527e+07
  +1.80381387398e+07
  +1.84706159958e+07
  +1.89134622028e+07
  +1.93669259638e+07
  +1.98312618423e+07
  +2.03067305050e+07
  +2.07935988683e+07
  +2.12921402484e+07
  +2.18026345139e+07
  +2.23253682440e+07
  +2.28606348886e+07
  +2.34087349331e+07
  +2.39699760676e+07
  +2.45446733590e+07
  +2.51331494283e+07
  +2.57357346315e+07
  +2.63527672453e+07
  +2.69845936565e+07
  +2.76315685571e+07
  +2.82940551429e+07
  +2.89724253176e+07
  +2.96670599017e+07
  +3.03783488459e+07
  +3.11066914504e+07
  +3.18524965889e+07
  +3.26161829381e+07
  +3.33981792128e+07
  +3.41989244066e+07
  +3.50188680381e+07
  +3.58584704037e+07
  +3.67182028355e+07
  +3.75985479662e+07
  +3.85000000000e+07
</indep>
<dep dBS11 frequency>
  -5.76378526759e-12
  -6.66060981149e-12
  -7.69533318310e-12
  -8.89688520643e-12
  -1.02874454132e-11
  -1.19017295922e-11
  -1.37628816027e-11
  -1.59220108003e-11
  -1.84186546112e-11
  -2.13164586482e-11
  -2.46732825593e-11
  -2.85643438869e-11
  -3.30725747930e-11
  -3.83059799541e-11
  -4.43715997187e-11
  -5.14169761895e-11
  -5.95896514686e-11
  -6.90834553770e-11
  -8.01172902495e-11
  -9.29370595901e-11
  -1.07833025966e-10
  -1.25167776505e-10
  -1.45336685469e-10
  -1.68816130626e-10
  -1.96159635941e-10
  -2.28029694385e-10
  -2.65180410036e-10
  -3.08524036678e-10
  -3.59117477214e-10
  -4.18218214662e-10
  -4.87287205134e-10
  -5.68072774327e-10
  -6.62627975418e-10
  -7.73384842280e-10
  -9.03217070764e-10
  -1.05554705905e-09
  -1.23443173280e-09
  -1.44469465800e-09
  -1.69207936905e-09
  -1.98345187752e-09
  -2.32699257332e-09
  -2.73252602470e-09
  -3.21181413380e-09
  -3.77898333371e-09
  -4.45106268322e-09
  -5.24858657146e-09
  -6.19639125245e-09
  -7.32456952926e-09
  -8.66969448559e-09
  -1.02763219080e-08
  -1.21988456521e-08
  -1.45039393194e-08
  -1.72734511690e-08
  -2.06083106080e-08
  -2.46332852188e-08
  -2.95031775283e-08
  -3.54108086753e-08
  -4.25971833866e-08
  -5.13648864161e-08
  -6.20953353287e-08
  -7.52716191526e-08
  -9.15084687176e-08
  -1.11592153782e-07
  -1.36533820477e-07
  -1.67641206434e-07
  -2.06616009918e-07
  -2.55686830620e-07
  -3.17792516839e-07
  -3.96836935156e-07
  -4.98046532221e-07
  -6.28477150987e-07
  -7.97739869683e-07
  -1.01905261631e-06
  -1.31078232278e-06
  -1.69873587341e-06
  -2.21961186471e-06
  -2.92628033039e-06
  -3.89599190511e-06
  -5.24337046252e-06
  -7.14137838684e-06
  -9.85586924638e-06
  -1.38038704742e-05
  -1.96544396961e-05
  -2.85082078470e-05
  -4.22272461099e-05
  -6.40629353664e-05
  -9.98997319318e-05
  -1.60833492842e-04
  -2.68802603312e-04
  -4.69654397625e-04
  -8.65701918681e-04
  -1.70403826672e-03
  -3.64216299015e-03
  -8.65625813901e-03
  -2.36983142403e-02
  -7.89216638826e-02
  -3.47093489957e-01
  -2.11926418697e+00
  -1.16506879931e+01
  -4.16660730282e+01
  -3.85437675594e+01
  -1.15995623639e+01
  -2.12459154669e+00
  -3.48560824297e-01
  -7.92428860922e-02
  -2.37845428838e-02
  -8.68420063020e-03
  -3.65265621535e-03
  -1.70845885918e-03
  -8.67742091306e-04
  -4.70668085434e-04
  -2.69337830131e-04
  -1.61130830849e-04
  -1.00072188280e-04
  -6.41667259099e-05
  -4.22917429744e-05
  -2.85494239086e-05
  -1.96814351238e-05
  -1.38219420496e-05
  -9.86820478596e-06
  -7.14994686417e-06
  -5.24941663717e-06
  -3.90031943264e-06
  -2.92941806363e-06
  -2.22191389154e-06
  -1.70044309628e-06
  -1.31206101609e-06
  -1.02001910410e-06
  -7.98476520535e-07
  -6.29043002033e-07
  -4.98484325370e-07
  -3.97177904022e-07
  -3.18059731035e-07
  -2.55897455180e-07
  -2.06782920545e-07
  -1.67774144766e-07
  -1.36640193515e-07
  -1.11677651057e-07
  -9.15774634563e-08
  -7.53275202525e-08
  -6.21407917975e-08
  -5.14019657720e-08
  -4.26275394512e-08
  -3.54357268972e-08
  -2.95236993813e-08
  -2.46502245951e-08
  -2.06223309651e-08
  -1.72850819227e-08
  -1.45136057380e-08
  -1.22069122514e-08
  -1.02830490564e-08
  -8.67532615801e-09
  -7.32928412625e-09
  -6.20034885238e-09
  -5.25192025152e-09
  -4.45386501884e-09
  -3.78134690034e-09
  -3.21380547002e-09
  -2.73421456210e-09
  -2.32842652827e-09
  -1.98466017984e-09
  -1.69310830646e-09
  -1.44556544570e-09
  -1.23517233629e-09
  -1.05618158653e-09
  -9.03756129818e-10
  -7.73843862154e-10
  -6.63018528042e-10
  -5.68409324613e-10
  -4.87577467701e-10
  -4.18462189511e-10
  -3.59328664929e-10
  -3.08707258896e-10
  -2.65335666758e-10
  -2.28159878593e-10
  -1.96272462254e-10
  -1.68909670390e-10
  -1.45419617631e-10
  -1.25239136738e-10
  -1.07896671579e-10
  -9.29862402909e-11
  -8.01616493129e-11
  -6.91258857855e-11
  -5.96253315849e-11
  -5.14449416860e-11
  -4.43976365603e-11
  -3.83243021759e-11
  -3.30947543248e-11
  -2.85788087989e-11
  -2.46867831438e-11
  -2.13261019229e-11
  -1.84282978859e-11
  -1.59297254200e-11
  -1.37686675675e-11
  -1.19055869021e-11
  -1.02941957055e-11
  -8.90267117123e-12
  -7.70015482043e-12
  -6.66543144882e-12
  -5.76474959506e-12
</dep>
<dep dBS21 frequency>
  -1.18772706160e+02
  -1.18143891780e+02
  -1.17514517111e+02
  -1.16884554423e+02
  -1.16253974586e+02
  -1.15622746994e+02
  -1.14990839492e+02
  -1.14358218291e+02
  -1.13724847881e+02
  -1.13090690941e+02
  -1.12455708239e+02
  -1.11819858534e+02
  -1.11183098462e+02
  -1.10545382426e+02
  -1.09906662468e+02
  -1.09266888146e+02
  -1.08626006393e+02
  -1.07983961371e+02
  -1.07340694318e+02
  -1.06696143383e+02
  -1.06050243454e+02
  -1.05402925966e+02
  -1.04754118709e+02
  -1.04103745616e+02
  -1.03451726537e+02
  -1.02797977000e+02
  -1.02142407959e+02
  -1.01484925515e+02
  -1.00825430629e+02
  -1.00163818810e+02
  -9.94999797765e+01
  -9.88337971032e+01
  -9.81651478340e+01
  -9.74939020703e+01
  -9.68199225275e+01
  -9.61430640579e+01
  -9.54631731369e+01
  -9.47800873086e+01
  -9.40936345881e+01
  -9.34036328145e+01
  -9.27098889513e+01
  -9.20121983282e+01
  -9.13103438189e+01
  -9.06040949462e+01
  -8.98932069106e+01
  -8.91774195293e+01
  -8.84564560799e+01
  -8.77300220354e+01
  -8.69978036794e+01
  -8.62594665870e+01
  -8.55146539547e+01
  -8.47629847627e+01
  -8.40040517467e+01
  -8.32374191558e+01
  -8.24626202699e+01
  -8.16791546413e+01
  -8.08864850272e+01
  -8.00840339665e+01
  -7.92711799521e+01
  -7.84472531387e+01
  -7.76115305171e+01
  -7.67632304721e+01
  -7.59015066282e+01
  -7.50254408655e+01
  -7.41340353693e+01
  -7.32262035474e+01
  -7.23007596142e+01
  -7.13564066006e+01
  -7.03917224932e+01
  -6.94051441419e+01
  -6.83949484876e+01
  -6.73592305573e+01
  -6.62958775318e+01
  -6.52025380137e+01
  -6.40765853876e+01
  -6.29150738522e+01
  -6.17146852931e+01
  -6.04716646033e+01
  -5.91817403004e+01
  -5.78400262345e+01
  -5.64408987111e+01
  -5.49778412611e+01
  -5.34432462654e+01
  -5.18281582036e+01
  -5.01219366323e+01
  -4.83118068033e+01
  -4.63822498339e+01
  -4.43141585928e+01
  -4.20836428090e+01
  -3.96602940058e+01
  -3.70045921562e+01
  -3.40639016716e+01
  -3.07660702975e+01
  -2.70088685323e+01
  -2.26425123426e+01
  -1.74452818592e+01
  -1.11457693987e+01
  -4.13261958253e+00
  -3.07613510605e-01
  -2.95931915519e-04
  -6.07348442886e-04
  -3.11389917774e-01
  -4.12416371134e+00
  -1.11281722156e+01
  -1.74278014654e+01
  -2.26267818659e+01
  -2.69948860062e+01
  -3.07535813258e+01
  -3.40526520628e+01
  -3.69943703353e+01
  -3.96509309336e+01
  -4.20750042114e+01
  -4.43061372135e+01
  -4.63747591825e+01
  -4.83047763947e+01
  -5.01153084181e+01
  -5.18218838968e+01
  -5.34372853225e+01
  -5.49721593453e+01
  -5.64354665111e+01
  -5.78348185458e+01
  -5.91767353045e+01
  -6.04668432963e+01
  -6.17100310292e+01
  -6.29105719745e+01
  -6.40722229282e+01
  -6.51983034480e+01
  -6.62917605753e+01
  -6.73552219971e+01
  -6.83910400412e+01
  -6.94013283385e+01
  -7.03879925732e+01
  -7.13527564302e+01
  -7.22971836125e+01
  -7.32226966235e+01
  -7.41305928684e+01
  -7.50220585218e+01
  -7.58981805246e+01
  -7.67599570042e+01
  -7.76083063622e+01
  -7.84440752286e+01
  -7.92680454488e+01
  -8.00809402407e+01
  -8.08834296396e+01
  -8.16761353256e+01
  -8.24596349180e+01
  -8.32344658041e+01
  -8.40011285639e+01
  -8.47600900395e+01
  -8.55117860935e+01
  -8.62566240932e+01
  -8.69949851537e+01
  -8.77272261663e+01
  -8.84536816373e+01
  -8.91746653585e+01
  -8.98904719266e+01
  -9.06013781291e+01
  -9.13076442091e+01
  -9.20095150224e+01
  -9.27072210985e+01
  -9.34009796127e+01
  -9.40909952809e+01
  -9.47774611822e+01
  -9.54605595175e+01
  -9.61404623091e+01
  -9.68173320478e+01
  -9.74913222912e+01
  -9.81625782178e+01
  -9.88312371411e+01
  -9.94974289870e+01
  -1.00161276737e+02
  -1.00822896841e+02
  -1.01482399602e+02
  -1.02139889534e+02
  -1.02795465696e+02
  -1.03449222004e+02
  -1.04101247524e+02
  -1.04751626744e+02
  -1.05400439830e+02
  -1.06047762865e+02
  -1.06693668073e+02
  -1.07338224030e+02
  -1.07981495864e+02
  -1.08623545438e+02
  -1.09264431524e+02
  -1.09904209971e+02
  -1.10542933856e+02
  -1.11180653633e+02
  -1.11817417266e+02
  -1.12453270363e+02
  -1.13088256295e+02
  -1.13722416313e+02
  -1.14355789653e+02
  -1.14988413646e+02
  -1.15620323808e+02
  -1.16251553934e+02
  -1.16882136186e+02
  -1.17512101174e+02
  -1.18141478035e+02
  -1.18770294503e+02
</dep>
<dep S[1,1] frequency>
  -9.99780275322e-01+j2.09618958125e-02
  -9.99769410626e-01+j2.14738346528e-02
  -9.99757998299e-01+j2.19987462088e-02
  -9.99746009692e-01+j2.25369941112e-02
  -9.99733414550e-01+j2.30889547295e-02
  -9.99720180916e-01+j2.36550177917e-02
  -9.99706275022e-01+j2.42355870460e-02
  -9.99691661171e-01+j2.48310809645e-02
  -9.99676301618e-01+j2.54419334956e-02
  -9.99660156432e-01+j2.60685948661e-02
  -9.99643183355e-01+j2.67115324392e-02
  -9.99625337650e-01+j2.73712316316e-02
  -9.99606571929e-01+j2.80481968952e-02
  -9.99586835976e-01+j2.87429527685e-02
  -9.99566076556e-01+j2.94560450043e-02
  -9.99544237201e-01+j3.01880417783e-02
  -9.99521257984e-01+j3.09395349883e-02
  -9.99497075273e-01+j3.17111416492e-02
  -9.99471621467e-01+j3.25035053942e-02
  -9.99444824703e-01+j3.33172980900e-02
  -9.99416608543e-01+j3.41532215780e-02
  -9.99386891628e-01+j3.50120095508e-02
  -9.99355587312e-01+j3.58944295788e-02
  -9.99322603248e-01+j3.68012852979e-02
  -9.99287840946e-01+j3.77334187769e-02
  -9.99251195289e-01+j3.86917130784e-02
  -9.99212553999e-01+j3.96770950341e-02
  -9.99171797053e-01+j4.06905382537e-02
  -9.99128796045e-01+j4.17330663921e-02
  -9.99083413483e-01+j4.28057566992e-02
  -9.99035502012e-01+j4.39097438816e-02
  -9.98984903562e-01+j4.50462243084e-02
  -9.98931448407e-01+j4.62164605960e-02
  -9.98874954124e-01+j4.74217866132e-02
  -9.98815224437e-01+j4.86636129500e-02
  -9.98752047941e-01+j4.99434329016e-02
  -9.98685196684e-01+j5.12628290239e-02
  -9.98614424583e-01+j5.26234803245e-02
  -9.98539465667e-01+j5.40271701608e-02
  -9.98460032110e-01+j5.54757949279e-02
  -9.98375812032e-01+j5.69713736279e-02
  -9.98286467041e-01+j5.85160584255e-02
  -9.98191629461e-01+j6.01121463109e-02
  -9.98090899228e-01+j6.17620920039e-02
  -9.97983840379e-01+j6.34685222576e-02
  -9.97869977097e-01+j6.52342517378e-02
  -9.97748789225e-01+j6.70623006853e-02
  -9.97619707181e-01+j6.89559145940e-02
  -9.97482106174e-01+j7.09185861804e-02
  -9.97335299612e-01+j7.29540799563e-02
  -9.97178531562e-01+j7.50664597708e-02
  -9.97010968123e-01+j7.72601197475e-02
  -9.96831687497e-01+j7.95398191100e-02
  -9.96639668567e-01+j8.19107214777e-02
  -9.96433777683e-01+j8.43784393108e-02
  -9.96212753354e-01+j8.69490843062e-02
  -9.95975188447e-01+j8.96293246918e-02
  -9.95719509416e-01+j9.24264505410e-02
  -9.95443951989e-01+j9.53484484435e-02
  -9.95146532596e-01+j9.84040871290e-02
  -9.94825014672e-01+j1.01603015959e-01
  -9.94476868750e-01+j1.04955878590e-01
  -9.94099225014e-01+j1.08474444603e-01
  -9.93688816613e-01+j1.12171762487e-01
  -9.93241911657e-01+j1.16062338110e-01
  -9.92754231199e-01+j1.20162343778e-01
  -9.92220849839e-01+j1.24489864128e-01
  -9.91636074585e-01+j1.29065186656e-01
  -9.90993296370e-01+j1.33911146568e-01
  -9.90284806935e-01+j1.39053538159e-01
  -9.89501571537e-01+j1.44521608121e-01
  -9.88632944850e-01+j1.50348650376e-01
  -9.87666313253e-01+j1.56572727576e-01
  -9.86586640843e-01+j1.63237551721e-01
  -9.85375888412e-01+j1.70393566158e-01
  -9.84012263023e-01+j1.78099284490e-01
  -9.82469239313e-01+j1.86422959970e-01
  -9.80714269529e-01+j1.95444683882e-01
  -9.78707063762e-01+j2.05259046117e-01
  -9.76397268472e-01+j2.15978540041e-01
  -9.73721289984e-01+j2.27737963537e-01
  -9.70597882873e-01+j2.40700168902e-01
  -9.66921921811e-01+j2.55063661717e-01
  -9.62555447993e-01+j2.71072767544e-01
  -9.57314534952e-01+j2.89031413576e-01
  -9.50949580893e-01+j3.09322071105e-01
  -9.43114972396e-01+j3.32432168033e-01
  -9.33321009145e-01+j3.58991450167e-01
  -9.20855125792e-01+j3.89825531656e-01
  -9.04647683967e-01+j4.26033369372e-01
  -8.83032617104e-01+j4.69099223793e-01
  -8.53296540841e-01+j5.21049633954e-01
  -8.10771179250e-01+j5.84646737301e-01
  -7.46852683309e-01+j6.63490676195e-01
  -6.44242410160e-01+j7.61255436365e-01
  -4.64401476636e-01+j8.75398769668e-01
  -1.17707075940e-01+j9.53590115187e-01
  +4.37327417856e-01+j6.50085172536e-01
  +2.58382561662e-01-j4.02341042161e-02
  +3.48847943695e-03-j7.48124530826e-03
  +4.97584695882e-03+j1.07274561749e-02
  +2.59804972595e-01+j4.11271832186e-02
  +4.39315577198e-01-j6.48163001334e-01
  -1.15427842635e-01-j9.53705203374e-01
  -4.63069967746e-01-j8.76062390994e-01
  -6.43460591164e-01-j7.61903434451e-01
  -7.46363081416e-01-j6.64036548315e-01
  -8.10446211505e-01-j5.85095066352e-01
  -8.53070444724e-01-j5.21418743923e-01
  -8.82869223298e-01-j4.69406166887e-01
  -9.04525884967e-01-j4.26291630185e-01
  -9.20761968359e-01-j3.90045359181e-01
  -9.33248200420e-01-j3.59180588780e-01
  -9.43057009402e-01-j3.32596504506e-01
  -9.50902698338e-01-j3.09466126528e-01
  -9.57276087452e-01-j2.89158701074e-01
  -9.62523533639e-01-j2.71186049541e-01
  -9.66895145243e-01-j2.55165135348e-01
  -9.70575201843e-01-j2.40791600669e-01
  -9.73701913455e-01-j2.27820788117e-01
  -9.76380587398e-01-j2.16053933586e-01
  -9.78692603116e-01-j2.05327981248e-01
  -9.80701654448e-01-j1.95507971402e-01
  -9.82458170800e-01-j1.86481280842e-01
  -9.84002500259e-01-j1.78153214594e-01
  -9.85367235686e-01-j1.70443595641e-01
  -9.86578937789e-01-j1.63284100262e-01
  -9.87659427459e-01-j1.56616156522e-01
  -9.88626766211e-01-j1.50389272470e-01
  -9.89496007892e-01-j1.44559695362e-01
  -9.90279780670e-01-j1.39089328188e-01
  -9.90988741746e-01-j1.33944847900e-01
  -9.91631935623e-01-j1.29096982989e-01
  -9.92217078628e-01-j1.24519917912e-01
  -9.92750786541e-01-j1.20190799186e-01
  -9.93238757968e-01-j1.16089323534e-01
  -9.93685923029e-01-j1.12197392627e-01
  -9.94096564654e-01-j1.08498822245e-01
  -9.94474418120e-01-j1.04979096107e-01
  -9.94822753159e-01-j1.01625156597e-01
  -9.95144442057e-01-j9.84252261058e-02
  -9.95442016402e-01-j9.53686538932e-02
  -9.95717714588e-01-j9.24457843297e-02
  -9.95973521769e-01-j8.96478431229e-02
  -9.96211203592e-01-j8.69668387338e-02
  -9.96432334803e-01-j8.43954766739e-02
  -9.96638323582e-01-j8.19270847667e-02
  -9.96830432339e-01-j7.95555477760e-02
  -9.97009795532e-01-j7.72752500617e-02
  -9.97177434990e-01-j7.50810251420e-02
  -9.97334273139e-01-j7.29681112100e-02
  -9.97481144442e-01-j7.09321118076e-02
  -9.97618805323e-01-j6.89689609705e-02
  -9.97747942819e-01-j6.70748922681e-02
  -9.97869182113e-01-j6.52464112395e-02
  -9.97983093140e-01-j6.34802708021e-02
  -9.98090196373e-01-j6.17734492665e-02
  -9.98190967912e-01-j6.01231306431e-02
  -9.98285843976e-01-j5.85266869678e-02
  -9.98375224859e-01-j5.69816624109e-02
  -9.98459478444e-01-j5.54857589639e-02
  -9.98538943313e-01-j5.40368235260e-02
  -9.98613931516e-01-j5.26328362339e-02
  -9.98684731032e-01-j5.12718998988e-02
  -9.98751607975e-01-j4.99522304309e-02
  -9.98814808554e-01-j4.86721481461e-02
  -9.98874560841e-01-j4.74300698626e-02
  -9.98931076346e-01-j4.62245017057e-02
  -9.98984551442e-01-j4.50540325478e-02
  -9.99035168644e-01-j4.39173280214e-02
  -9.99083097759e-01-j4.28131250462e-02
  -9.99128496932e-01-j4.17402268220e-02
  -9.99171513588e-01-j4.06974982403e-02
  -9.99212285283e-01-j3.96838616767e-02
  -9.99250940483e-01-j3.86982931265e-02
  -9.99287599264e-01-j3.77398186533e-02
  -9.99322373955e-01-j3.68075111201e-02
  -9.99355369719e-01-j3.59004871780e-02
  -9.99386685091e-01-j3.50179044903e-02
  -9.99416412455e-01-j3.41589591694e-02
  -9.99444638497e-01-j3.33228834090e-02
