<Qucs Dataset 0.0.18>
<indep frequency 200>
  +3.45000000000e+05
  +3.53271621339e+05
  +3.61741560705e+05
  +3.70414572916e+05
  +3.79295526787e+05
  +3.88389407868e+05
  +3.97701321242e+05
  +4.07236494388e+05
  +4.17000280118e+05
  +4.26998159582e+05
  +4.37235745346e+05
  +4.47718784538e+05
  +4.58453162080e+05
  +4.69444903988e+05
  +4.80700180757e+05
  +4.92225310823e+05
  +5.04026764111e+05
  +5.16111165668e+05
  +5.28485299382e+05
  +5.41156111786e+05
  +5.54130715966e+05
  +5.67416395544e+05
  +5.81020608777e+05
  +5.94950992736e+05
  +6.09215367597e+05
  +6.23821741031e+05
  +6.38778312697e+05
  +6.54093478847e+05
  +6.69775837042e+05
  +6.85834190972e+05
  +7.02277555404e+05
  +7.19115161239e+05
  +7.36356460696e+05
  +7.54011132618e+05
  +7.72089087906e+05
  +7.90600475080e+05
  +8.09555685979e+05
  +8.28965361593e+05
  +8.48840398040e+05
  +8.69191952677e+05
  +8.90031450367e+05
  +9.11370589895e+05
  +9.33221350529e+05
  +9.55595998752e+05
  +9.78507095142e+05
  +1.00196750143e+06
  +1.02599038770e+06
  +1.05058923983e+06
  +1.07577786700e+06
  +1.10157040950e+06
  +1.12798134662e+06
  +1.15502550481e+06
  +1.18271806600e+06
  +1.21107457613e+06
  +1.24011095383e+06
  +1.26984349942e+06
  +1.30028890402e+06
  +1.33146425893e+06
  +1.36338706524e+06
  +1.39607524362e+06
  +1.42954714442e+06
  +1.46382155794e+06
  +1.49891772500e+06
  +1.53485534772e+06
  +1.57165460060e+06
  +1.60933614186e+06
  +1.64792112496e+06
  +1.68743121059e+06
  +1.72788857873e+06
  +1.76931594117e+06
  +1.81173655419e+06
  +1.85517423171e+06
  +1.89965335855e+06
  +1.94519890422e+06
  +1.99183643687e+06
  +2.03959213767e+06
  +2.08849281549e+06
  +2.13856592198e+06
  +2.18983956695e+06
  +2.24234253417e+06
  +2.29610429752e+06
  +2.35115503753e+06
  +2.40752565833e+06
  +2.46524780503e+06
  +2.52435388140e+06
  +2.58487706816e+06
  +2.64685134154e+06
  +2.71031149237e+06
  +2.77529314563e+06
  +2.84183278043e+06
  +2.90996775048e+06
  +2.97973630509e+06
  +3.05117761061e+06
  +3.12433177244e+06
  +3.19923985754e+06
  +3.27594391746e+06
  +3.35448701199e+06
  +3.43491323329e+06
  +3.51726773068e+06
  +3.60159673594e+06
  +3.68794758932e+06
  +3.77636876606e+06
  +3.86690990365e+06
  +3.95962182966e+06
  +4.05455659030e+06
  +4.15176747961e+06
  +4.25130906940e+06
  +4.35323723988e+06
  +4.45760921103e+06
  +4.56448357471e+06
  +4.67392032757e+06
  +4.78598090472e+06
  +4.90072821422e+06
  +5.01822667240e+06
  +5.13854224002e+06
  +5.26174245927e+06
  +5.38789649175e+06
  +5.51707515723e+06
  +5.64935097346e+06
  +5.78479819683e+06
  +5.92349286409e+06
  +6.06551283503e+06
  +6.21093783618e+06
  +6.35984950557e+06
  +6.51233143856e+06
  +6.66846923477e+06
  +6.82835054614e+06
  +6.99206512609e+06
  +7.15970488001e+06
  +7.33136391671e+06
  +7.50713860140e+06
  +7.68712760965e+06
  +7.87143198290e+06
  +8.06015518509e+06
  +8.25340316081e+06
  +8.45128439473e+06
  +8.65390997253e+06
  +8.86139364323e+06
  +9.07385188309e+06
  +9.29140396095e+06
  +9.51417200521e+06
  +9.74228107240e+06
  +9.97585921734e+06
  +1.02150375651e+07
  +1.04599503845e+07
  +1.07107351637e+07
  +1.09675326869e+07
  +1.12304871142e+07
  +1.14997460616e+07
  +1.17754606846e+07
  +1.20577857625e+07
  +1.23468797857e+07
  +1.26429050445e+07
  +1.29460277203e+07
  +1.32564179787e+07
  +1.35742500652e+07
  +1.38997024028e+07
  +1.42329576927e+07
  +1.45742030161e+07
  +1.49236299397e+07
  +1.52814346234e+07
  +1.56478179298e+07
  +1.60229855376e+07
  +1.64071480567e+07
  +1.68005211465e+07
  +1.72033256370e+07
  +1.76157876527e+07
  +1.80381387398e+07
  +1.84706159958e+07
  +1.89134622028e+07
  +1.93669259638e+07
  +1.98312618423e+07
  +2.03067305050e+07
  +2.07935988683e+07
  +2.12921402484e+07
  +2.18026345139e+07
  +2.23253682440e+07
  +2.28606348886e+07
  +2.34087349331e+07
  +2.39699760676e+07
  +2.45446733590e+07
  +2.51331494283e+07
  +2.57357346315e+07
  +2.63527672453e+07
  +2.69845936565e+07
  +2.76315685571e+07
  +2.82940551429e+07
  +2.89724253176e+07
  +2.96670599017e+07
  +3.03783488459e+07
  +3.11066914504e+07
  +3.18524965889e+07
  +3.26161829381e+07
  +3.33981792128e+07
  +3.41989244066e+07
  +3.50188680381e+07
  +3.58584704037e+07
  +3.67182028355e+07
  +3.75985479662e+07
  +3.85000000000e+07
</indep>
<dep dBS11 frequency>
  -2.89298239966e-15
  +0.00000000000e+00
  -9.64327466553e-16
  -4.82163733277e-15
  +1.92865493311e-15
  -3.85730986621e-15
  +0.00000000000e+00
  +0.00000000000e+00
  +3.85730986621e-15
  +0.00000000000e+00
  +1.92865493311e-15
  -2.89298239966e-15
  -4.82163733277e-15
  +1.92865493311e-15
  -1.92865493311e-15
  +0.00000000000e+00
  -3.85730986621e-15
  -9.64327466553e-16
  +0.00000000000e+00
  -1.92865493311e-15
  +3.85730986621e-15
  -2.89298239966e-15
  -3.85730986621e-15
  -9.64327466553e-16
  -9.64327466553e-16
  +0.00000000000e+00
  +0.00000000000e+00
  +1.92865493311e-15
  +1.92865493311e-15
  +0.00000000000e+00
  +1.92865493311e-15
  -9.64327466553e-16
  -9.64327466553e-16
  +0.00000000000e+00
  +0.00000000000e+00
  +1.92865493311e-15
  -2.89298239966e-15
  -9.64327466553e-16
  +0.00000000000e+00
  +0.00000000000e+00
  +0.00000000000e+00
  -1.92865493311e-15
  -1.92865493311e-15
  +1.92865493311e-15
  +0.00000000000e+00
  -3.85730986621e-15
  -2.89298239966e-15
  +0.00000000000e+00
  +1.92865493311e-15
  -1.92865493311e-15
  -2.89298239966e-15
  -1.92865493311e-15
  -2.89298239966e-15
  -9.64327466553e-16
  -4.82163733277e-15
  +3.85730986621e-15
  -9.64327466553e-16
  +0.00000000000e+00
  -2.89298239966e-15
  -1.92865493311e-15
  +0.00000000000e+00
  +0.00000000000e+00
  -1.92865493311e-15
  -1.92865493311e-15
  +0.00000000000e+00
  +1.92865493311e-15
  -1.92865493311e-15
  +0.00000000000e+00
  -5.78596479932e-15
  -9.64327466553e-16
  -1.92865493311e-15
  -2.89298239966e-15
  -5.78596479932e-15
  -9.64327466553e-16
  -8.67894719898e-15
  -1.54292394649e-14
  -2.70011690635e-14
  -3.76087711956e-14
  -6.17169578594e-14
  -1.21505260786e-13
  -2.27581282107e-13
  -4.61912856479e-13
  -9.22861385492e-13
  -1.93926253524e-12
  -4.27968529657e-12
  -9.91907232098e-12
  -2.42538001113e-11
  -6.34604619194e-11
  -1.79220259663e-10
  -5.55298328376e-10
  -1.92475133595e-09
  -7.66862421202e-09
  -3.64945382134e-08
  -2.19702142094e-07
  -1.83549667341e-06
  -2.51839698421e-05
  -8.32168143450e-04
  -3.31433932846e-01
  -1.11483245157e+01
  -7.55723436073e+00
  -7.53554095139e+00
  -1.11111520235e+01
  -3.25950588745e-01
  -8.27259505585e-04
  -2.50891556443e-05
  -1.83032435428e-06
  -2.19202875987e-07
  -3.64247112609e-08
  -7.65589316079e-09
  -1.92192296349e-09
  -5.54556760554e-10
  -1.79005214638e-10
  -6.33804227397e-11
  -2.42441568367e-11
  -9.89592846178e-12
  -4.28643558883e-12
  -1.93733388031e-12
  -9.14182438293e-13
  -4.55162564213e-13
  -2.32402919439e-13
  -1.18612278386e-13
  -6.75029226587e-14
  -3.56801162625e-14
  -2.60368415969e-14
  -1.73578943980e-14
  -8.67894719898e-15
  +1.92865493311e-15
  -5.78596479932e-15
  -1.92865493311e-15
  +0.00000000000e+00
  +3.85730986621e-15
  -9.64327466553e-16
  -3.85730986621e-15
  +1.92865493311e-15
  +0.00000000000e+00
  +1.92865493311e-15
  +1.92865493311e-15
  +0.00000000000e+00
  -1.92865493311e-15
  +1.92865493311e-15
  +3.85730986621e-15
  +0.00000000000e+00
  +0.00000000000e+00
  +0.00000000000e+00
  +1.92865493311e-15
  -1.92865493311e-15
  -9.64327466553e-16
  +0.00000000000e+00
  +0.00000000000e+00
  +0.00000000000e+00
  +1.92865493311e-15
  +1.92865493311e-15
  -9.64327466553e-16
  +0.00000000000e+00
  +3.85730986621e-15
  -9.64327466553e-16
  +1.92865493311e-15
  +1.92865493311e-15
  -2.89298239966e-15
  +0.00000000000e+00
  -5.78596479932e-15
  +1.92865493311e-15
  -1.92865493311e-15
  -9.64327466553e-16
  -1.92865493311e-15
  +1.92865493311e-15
  +0.00000000000e+00
  +1.92865493311e-15
  -9.64327466553e-16
  -9.64327466553e-16
  -2.89298239966e-15
  +0.00000000000e+00
  +0.00000000000e+00
  -9.64327466553e-16
  -9.64327466553e-16
  +0.00000000000e+00
  -1.92865493311e-15
  +0.00000000000e+00
  +0.00000000000e+00
  -9.64327466553e-16
  -3.85730986621e-15
  +0.00000000000e+00
  +0.00000000000e+00
  -1.92865493311e-15
  -9.64327466553e-16
  +1.92865493311e-15
  +1.92865493311e-15
  -2.89298239966e-15
  +0.00000000000e+00
  -9.64327466553e-16
  +0.00000000000e+00
  +0.00000000000e+00
  +0.00000000000e+00
  +0.00000000000e+00
  -1.92865493311e-15
  +0.00000000000e+00
  -2.89298239966e-15
  +0.00000000000e+00
  +0.00000000000e+00
  +0.00000000000e+00
</dep>
<dep dBS21 frequency>
  -2.57528538140e+02
  -2.56270866768e+02
  -2.55012072672e+02
  -2.53752100280e+02
  -2.52490891212e+02
  -2.51228384135e+02
  -2.49964514605e+02
  -2.48699214905e+02
  -2.47432413867e+02
  -2.46164036692e+02
  -2.44894004753e+02
  -2.43622235393e+02
  -2.42348641698e+02
  -2.41073132277e+02
  -2.39795611010e+02
  -2.38515976790e+02
  -2.37234123249e+02
  -2.35949938464e+02
  -2.34663304648e+02
  -2.33374097820e+02
  -2.32082187453e+02
  -2.30787436106e+02
  -2.29489699020e+02
  -2.28188823700e+02
  -2.26884649464e+02
  -2.25577006961e+02
  -2.24265717660e+02
  -2.22950593297e+02
  -2.21631435298e+02
  -2.20308034143e+02
  -2.18980168701e+02
  -2.17647605505e+02
  -2.16310097987e+02
  -2.14967385641e+02
  -2.13619193139e+02
  -2.12265229365e+02
  -2.10905186388e+02
  -2.09538738345e+02
  -2.08165540237e+02
  -2.06785226629e+02
  -2.05397410243e+02
  -2.04001680431e+02
  -2.02597601522e+02
  -2.01184711018e+02
  -1.99762517638e+02
  -1.98330499181e+02
  -1.96888100200e+02
  -1.95434729446e+02
  -1.93969757082e+02
  -1.92492511615e+02
  -1.91002276531e+02
  -1.89498286585e+02
  -1.87979723705e+02
  -1.86445712468e+02
  -1.84895315081e+02
  -1.83327525806e+02
  -1.81741264760e+02
  -1.80135370984e+02
  -1.78508594699e+02
  -1.76859588613e+02
  -1.75186898136e+02
  -1.73488950347e+02
  -1.71764041501e+02
  -1.70010322848e+02
  -1.68225784466e+02
  -1.66408236784e+02
  -1.64555289368e+02
  -1.62664326476e+02
  -1.60732478763e+02
  -1.58756590390e+02
  -1.56733180605e+02
  -1.54658398634e+02
  -1.52527970426e+02
  -1.50337135432e+02
  -1.48080571060e+02
  -1.45752301809e+02
  -1.43345589184e+02
  -1.40852797259e+02
  -1.38265227121e+02
  -1.35572911068e+02
  -1.32764354167e+02
  -1.29826206055e+02
  -1.26742838926e+02
  -1.23495797378e+02
  -1.20063069966e+02
  -1.16418107676e+02
  -1.12528474679e+02
  -1.08353950420e+02
  -1.03843787126e+02
  -9.89326184449e+01
  -9.35341157669e+01
  -8.75306709999e+01
  -8.07555605858e+01
  -7.29594996744e+01
  -6.37403078693e+01
  -5.23666137798e+01
  -3.71761483268e+01
  -1.13385365304e+01
  -3.46880967496e-01
  -8.38092214854e-01
  -8.42723806665e-01
  -3.49986188581e-01
  -1.14082814431e+01
  -3.72018390756e+01
  -5.23829951916e+01
  -6.37525634043e+01
  -7.29693806076e+01
  -8.07638829120e+01
  -8.75378855339e+01
  -9.35404997076e+01
  -9.89383552938e+01
  -1.03849005103e+02
  -1.08358742895e+02
  -1.12532911892e+02
  -1.16422243877e+02
  -1.20066947978e+02
  -1.23499451624e+02
  -1.26746297514e+02
  -1.29829492242e+02
  -1.32767487426e+02
  -1.35575907868e+02
  -1.38268101521e+02
  -1.40855561355e+02
  -1.43348253461e+02
  -1.45754875415e+02
  -1.48083062023e+02
  -1.50339550836e+02
  -1.52530316554e+02
  -1.54660681082e+02
  -1.56735404379e+02
  -1.58758759983e+02
  -1.60734598226e+02
  -1.62666399472e+02
  -1.64557319216e+02
  -1.66410226504e+02
  -1.68227736812e+02
  -1.70012240337e+02
  -1.71765926439e+02
  -1.73490804851e+02
  -1.75188724154e+02
  -1.76861387941e+02
  -1.78510368994e+02
  -1.80137121780e+02
  -1.81742993478e+02
  -1.83329233765e+02
  -1.84897003505e+02
  -1.86447382497e+02
  -1.87981376401e+02
  -1.89499922937e+02
  -1.91003897464e+02
  -1.92494117992e+02
  -1.93971349713e+02
  -1.95436309087e+02
  -1.96889667561e+02
  -1.98332054927e+02
  -1.99764062394e+02
  -2.01186245372e+02
  -2.02599126025e+02
  -2.04003195603e+02
  -2.05398916573e+02
  -2.06786724578e+02
  -2.08167030239e+02
  -2.09540220810e+02
  -2.10906661703e+02
  -2.12266697894e+02
  -2.13620655228e+02
  -2.14968841616e+02
  -2.16311548155e+02
  -2.17649050159e+02
  -2.18981608115e+02
  -2.20309468579e+02
  -2.21632865003e+02
  -2.22952018506e+02
  -2.24267138593e+02
  -2.25578423830e+02
  -2.26886062468e+02
  -2.28190233028e+02
  -2.29491104851e+02
  -2.30788838611e+02
  -2.32083586793e+02
  -2.33375494148e+02
  -2.34664698110e+02
  -2.35951329199e+02
  -2.37235511387e+02
  -2.38517362457e+02
  -2.39796994324e+02
  -2.41074513351e+02
  -2.42350020639e+02
  -2.43623612303e+02
  -2.44895379729e+02
  -2.46165409825e+02
  -2.47433785246e+02
  -2.48700584613e+02
  -2.49965882722e+02
  -2.51229750735e+02
  -2.52492256367e+02
  -2.53753464059e+02
  -2.55013435140e+02
  -2.56272227986e+02
  -2.57529898167e+02
</dep>
<dep S[1,1] frequency>
  -9.99952668962e-01+j9.72932863659e-03
  -9.99950328414e-01+j9.96698070919e-03
  -9.99947869874e-01+j1.02106579005e-02
  -9.99945287166e-01+j1.04605293154e-02
  -9.99942573772e-01+j1.07167699982e-02
  -9.99939722801e-01+j1.09795612230e-02
  -9.99936726976e-01+j1.12490908031e-02
  -9.99933578603e-01+j1.15255534202e-02
  -9.99930269545e-01+j1.18091509768e-02
  -9.99926791195e-01+j1.21000929719e-02
  -9.99923134443e-01+j1.23985969025e-02
  -9.99919289645e-01+j1.27048886935e-02
  -9.99915246583e-01+j1.30192031574e-02
  -9.99910994432e-01+j1.33417844874e-02
  -9.99906521714e-01+j1.36728867856e-02
  -9.99901816254e-01+j1.40127746300e-02
  -9.99896865128e-01+j1.43617236836e-02
  -9.99891654616e-01+j1.47200213490e-02
  -9.99886170140e-01+j1.50879674725e-02
  -9.99880396201e-01+j1.54658751026e-02
  -9.99874316313e-01+j1.58540713070e-02
  -9.99867912929e-01+j1.62528980546e-02
  -9.99861167358e-01+j1.66627131664e-02
  -9.99854059679e-01+j1.70838913448e-02
  -9.99846568645e-01+j1.75168252854e-02
  -9.99838671578e-01+j1.79619268817e-02
  -9.99830344251e-01+j1.84196285307e-02
  -9.99821560766e-01+j1.88903845481e-02
  -9.99812293412e-01+j1.93746727071e-02
  -9.99802512516e-01+j1.98729959093e-02
  -9.99792186273e-01+j2.03858840047e-02
  -9.99781280563e-01+j2.09138957734e-02
  -9.99769758743e-01+j2.14576210876e-02
  -9.99757581428e-01+j2.20176832727e-02
  -9.99744706237e-01+j2.25947416888e-02
  -9.99731087514e-01+j2.31894945555e-02
  -9.99716676027e-01+j2.38026820501e-02
  -9.99701418620e-01+j2.44350897063e-02
  -9.99685257832e-01+j2.50875521506e-02
  -9.99668131473e-01+j2.57609572137e-02
  -9.99649972146e-01+j2.64562504629e-02
  -9.99630706711e-01+j2.71744402045e-02
  -9.99610255688e-01+j2.79166030153e-02
  -9.99588532578e-01+j2.86838898670e-02
  -9.99565443107e-01+j2.94775329206e-02
  -9.99540884358e-01+j3.02988530755e-02
  -9.99514743803e-01+j3.11492683732e-02
  -9.99486898196e-01+j3.20303033704e-02
  -9.99457212313e-01+j3.29435996116e-02
  -9.99425537518e-01+j3.38909273569e-02
  -9.99391710123e-01+j3.48741987410e-02
  -9.99355549507e-01+j3.58954825713e-02
  -9.99316855956e-01+j3.69570210077e-02
  -9.99275408168e-01+j3.80612484080e-02
  -9.99230960374e-01+j3.92108126734e-02
  -9.99183238994e-01+j4.04085994888e-02
  -9.99131938754e-01+j4.16577599259e-02
  -9.99076718139e-01+j4.29617419643e-02
  -9.99017194082e-01+j4.43243265961e-02
  -9.98952935707e-01+j4.57496693082e-02
  -9.98883456948e-01+j4.72423479000e-02
  -9.98808207800e-01+j4.88074177966e-02
  -9.98726563903e-01+j5.04504762611e-02
  -9.98637814094e-01+j5.21777372249e-02
  -9.98541145447e-01+j5.39961188420e-02
  -9.98435625215e-01+j5.59133463653e-02
  -9.98320178916e-01+j5.79380735699e-02
  -9.98193563587e-01+j6.00800267468e-02
  -9.98054334950e-01+j6.23501763224e-02
  -9.97900806857e-01+j6.47609424985e-02
  -9.97731000854e-01+j6.73264430567e-02
  -9.97542583014e-01+j7.00627937847e-02
  -9.97332784235e-01+j7.29884750560e-02
  -9.97098298830e-01+j7.61247822326e-02
  -9.96835154407e-01+j7.94963831753e-02
  -9.96538543295e-01+j8.31320138594e-02
  -9.96202601967e-01+j8.70653538066e-02
  -9.95820119234e-01+j9.13361381263e-02
  -9.95382145565e-01+j9.59915844737e-02
  -9.94877463230e-01+j1.01088244403e-01
  -9.94291857379e-01+j1.06694434483e-01
  -9.93607097460e-01+j1.12893471362e-01
  -9.92799489038e-01+j1.19788040162e-01
  -9.91837774788e-01+j1.27506190058e-01
  -9.90680025910e-01+j1.36209714271e-01
  -9.89268925026e-01+j1.46106105199e-01
  -9.87524407433e-01+j1.57466011311e-01
  -9.85331810483e-01+j1.70649416162e-01
  -9.82522070391e-01+j1.86146128496e-01
  -9.78837155256e-01+j2.04640717751e-01
  -9.73866488013e-01+j2.27121251940e-01
  -9.66922271173e-01+j2.55071205241e-01
  -9.56774418739e-01+j2.90831056187e-01
  -9.41024098086e-01+j3.38339468925e-01
  -9.14389771735e-01+j4.04834438639e-01
  -8.62857640144e-01+j5.05441286440e-01
  -7.34030515766e-01+j6.78975409337e-01
  +3.27172222379e-02+j9.62004906954e-01
  +1.29087203231e-01+j2.45157608478e-01
  -3.35565325316e-01+j2.50790126223e-01
  -3.38173365403e-01-j2.49032890455e-01
  +1.34061247868e-01-j2.43830311287e-01
  +2.34501149133e-02-j9.62883432818e-01
  -7.34569204559e-01-j6.78393409692e-01
  -8.62988823247e-01-j5.05217293822e-01
  -9.14440641176e-01-j4.04719523026e-01
  -9.41049096838e-01-j3.38269931958e-01
  -9.56788603675e-01-j2.90784386601e-01
  -9.66931131440e-01-j2.55037615441e-01
  -9.73872413872e-01-j2.27095841127e-01
  -9.78841325737e-01-j2.04620768500e-01
  -9.82525123339e-01-j1.86130013611e-01
  -9.85334116405e-01-j1.70636101205e-01
  -9.87526194031e-01-j1.57454806520e-01
  -9.89270338791e-01-j1.46096532420e-01
  -9.90681164724e-01-j1.36201431196e-01
  -9.91838706164e-01-j1.27498944914e-01
  -9.92800260824e-01-j1.19781643450e-01
  -9.93607744367e-01-j1.12887777606e-01
  -9.94292405106e-01-j1.06689330060e-01
  -9.94877931146e-01-j1.01083639219e-01
  -9.95382548503e-01-j9.59874061346e-02
  -9.95820468712e-01-j9.13323277643e-02
  -9.96202907044e-01-j8.70618630431e-02
  -9.96538811179e-01-j8.31288025535e-02
  -9.96835390893e-01-j7.94934177316e-02
  -9.97098508620e-01-j7.61220343119e-02
  -9.97332971177e-01-j7.29859205802e-02
  -9.97542750286e-01-j7.00604121606e-02
  -9.97731151094e-01-j6.73242165647e-02
  -9.97900942276e-01-j6.47588558056e-02
  -9.98054457407e-01-j6.23482160918e-02
  -9.98193674659e-01-j6.00781813217e-02
  -9.98320279946e-01-j5.79363327159e-02
  -9.98435717352e-01-j5.59117010588e-02
  -9.98541229681e-01-j5.39945610958e-02
  -9.98637891279e-01-j5.21762599429e-02
  -9.98726634781e-01-j5.04490731165e-02
  -9.98808273018e-01-j4.88060831303e-02
  -9.98883517072e-01-j4.72410766342e-02
  -9.98952991233e-01-j4.57484568731e-02
  -9.99017245447e-01-j4.43231688680e-02
  -9.99076765730e-01-j4.29606352117e-02
  -9.99131982914e-01-j4.16567007638e-02
  -9.99183280028e-01-j4.04075848393e-02
  -9.99230998553e-01-j3.92098397309e-02
  -9.99275443735e-01-j3.80603146099e-02
  -9.99316889129e-01-j3.69561240082e-02
  -9.99355580481e-01-j3.58946202187e-02
  -9.99391739075e-01-j3.48733690579e-02
  -9.99425564606e-01-j3.38901285224e-02
  -9.99457237682e-01-j3.29428299462e-02
  -9.99486921976e-01-j3.20295613220e-02
  -9.99514766112e-01-j3.11485525053e-02
  -9.99540905304e-01-j3.02981620561e-02
  -9.99565462788e-01-j2.94768655131e-02
  -9.99588551085e-01-j2.86832449211e-02
  -9.99610273102e-01-j2.79159794597e-02
  -9.99630723108e-01-j2.71738370401e-02
  -9.99649987594e-01-j2.64556667562e-02
  -9.99668146036e-01-j2.57603920919e-02
  -9.99685271568e-01-j2.50870047962e-02
  -9.99701431583e-01-j2.44345593525e-02
  -9.99716688267e-01-j2.38021679771e-02
  -9.99731099076e-01-j2.31889960867e-02
  -9.99744717164e-01-j2.25942581873e-02
  -9.99757591760e-01-j2.20172141385e-02
  -9.99769768516e-01-j2.14571657544e-02
  -9.99781289810e-01-j2.09134537067e-02
  -9.99792195027e-01-j2.03854546991e-02
  -9.99802520805e-01-j1.98725788865e-02
  -9.99812301264e-01-j1.93742675140e-02
  -9.99821568206e-01-j1.88899907550e-02
  -9.99830351303e-01-j1.84192457298e-02
  -9.99838678264e-01-j1.79615546856e-02
  -9.99846574987e-01-j1.75164633254e-02
  -9.99854065695e-01-j1.70835392704e-02
  -9.99861173066e-01-j1.66623706434e-02
  -9.99867918347e-01-j1.62525647644e-02
  -9.99874321456e-01-j1.58537469458e-02
  -9.99880401085e-01-j1.54655593799e-02
