<Qucs Dataset 0.0.18>
<indep frequency 200>
  +8.00000000000e+05
  +8.18754755917e+05
  +8.37949187922e+05
  +8.57593603535e+05
  +8.77698551923e+05
  +8.98274829561e+05
  +9.19333486030e+05
  +9.40885829952e+05
  +9.62943435061e+05
  +9.85518146419e+05
  +1.00862208678e+06
  +1.03226766309e+06
  +1.05646757317e+06
  +1.08123481251e+06
  +1.10658268126e+06
  +1.13252479137e+06
  +1.15907507391e+06
  +1.18624778653e+06
  +1.21405752115e+06
  +1.24251921175e+06
  +1.27164814242e+06
  +1.30145995558e+06
  +1.33197066033e+06
  +1.36319664111e+06
  +1.39515466645e+06
  +1.42786189800e+06
  +1.46133589972e+06
  +1.49559464737e+06
  +1.53065653807e+06
  +1.56654040027e+06
  +1.60326550383e+06
  +1.64085157032e+06
  +1.67931878369e+06
  +1.71868780106e+06
  +1.75897976382e+06
  +1.80021630899e+06
  +1.84241958083e+06
  +1.88561224275e+06
  +1.92981748946e+06
  +1.97505905944e+06
  +2.02136124767e+06
  +2.06874891869e+06
  +2.11724751997e+06
  +2.16688309554e+06
  +2.21768229999e+06
  +2.26967241279e+06
  +2.32288135293e+06
  +2.37733769393e+06
  +2.43307067916e+06
  +2.49011023755e+06
  +2.54848699969e+06
  +2.60823231424e+06
  +2.66937826478e+06
  +2.73195768704e+06
  +2.79600418653e+06
  +2.86155215661e+06
  +2.92863679692e+06
  +2.99729413229e+06
  +3.06756103212e+06
  +3.13947523014e+06
  +3.21307534470e+06
  +3.28840089950e+06
  +3.36549234478e+06
  +3.44439107912e+06
  +3.52513947158e+06
  +3.60778088454e+06
  +3.69235969691e+06
  +3.77892132800e+06
  +3.86751226192e+06
  +3.95818007252e+06
  +4.05097344894e+06
  +4.14594222177e+06
  +4.24313738979e+06
  +4.34261114738e+06
  +4.44441691252e+06
  +4.54860935551e+06
  +4.65524442829e+06
  +4.76437939453e+06
  +4.87607286033e+06
  +4.99038480575e+06
  +5.10737661695e+06
  +5.22711111924e+06
  +5.34965261073e+06
  +5.47506689693e+06
  +5.60342132603e+06
  +5.73478482512e+06
  +5.86922793717e+06
  +6.00682285890e+06
  +6.14764347960e+06
  +6.29176542076e+06
  +6.43926607670e+06
  +6.59022465615e+06
  +6.74472222473e+06
  +6.90284174855e+06
  +7.06466813871e+06
  +7.23028829694e+06
  +7.39979116221e+06
  +7.57326775857e+06
  +7.75081124396e+06
  +7.93251696026e+06
  +8.11848248451e+06
  +8.30880768128e+06
  +8.50359475632e+06
  +8.70294831141e+06
  +8.90697540059e+06
  +9.11578558759e+06
  +9.32949100471e+06
  +9.54820641299e+06
  +9.77204926390e+06
  +1.00011397623e+07
  +1.02356009313e+07
  +1.04755586777e+07
  +1.07211418603e+07
  +1.09724823587e+07
  +1.12297151443e+07
  +1.14929783525e+07
  +1.17624133572e+07
  +1.20381648466e+07
  +1.23203809008e+07
  +1.26092130716e+07
  +1.29048164634e+07
  +1.32073498171e+07
  +1.35169755948e+07
  +1.38338600673e+07
  +1.41581734035e+07
  +1.44900897615e+07
  +1.48297873824e+07
  +1.51774486857e+07
  +1.55332603676e+07
  +1.58974135011e+07
  +1.62701036386e+07
  +1.66515309167e+07
  +1.70419001642e+07
  +1.74414210116e+07
  +1.78503080040e+07
  +1.82687807161e+07
  +1.86970638701e+07
  +1.91353874567e+07
  +1.95839868581e+07
  +2.00431029749e+07
  +2.05129823551e+07
  +2.09938773266e+07
  +2.14860461328e+07
  +2.19897530714e+07
  +2.25052686358e+07
  +2.30328696610e+07
  +2.35728394717e+07
  +2.41254680349e+07
  +2.46910521154e+07
  +2.52698954351e+07
  +2.58623088363e+07
  +2.64686104484e+07
  +2.70891258589e+07
  +2.77241882883e+07
  +2.83741387688e+07
  +2.90393263275e+07
  +2.97201081741e+07
  +3.04168498924e+07
  +3.11299256368e+07
  +3.18597183331e+07
  +3.26066198842e+07
  +3.33710313808e+07
  +3.41533633161e+07
  +3.49540358070e+07
  +3.57734788194e+07
  +3.66121323989e+07
  +3.74704469073e+07
  +3.83488832646e+07
  +3.92479131963e+07
  +4.01680194866e+07
  +4.11096962381e+07
  +4.20734491366e+07
  +4.30597957230e+07
  +4.40692656713e+07
  +4.51024010727e+07
  +4.61597567270e+07
  +4.72419004403e+07
  +4.83494133301e+07
  +4.94828901373e+07
  +5.06429395455e+07
  +5.18301845082e+07
  +5.30452625827e+07
  +5.42888262731e+07
  +5.55615433803e+07
  +5.68640973609e+07
  +5.81971876940e+07
  +5.95615302569e+07
  +6.09578577094e+07
  +6.23869198877e+07
  +6.38494842063e+07
  +6.53463360710e+07
  +6.68782792999e+07
  +6.84461365555e+07
  +7.00507497862e+07
  +7.16929806788e+07
  +7.33737111208e+07
  +7.50938436744e+07
  +7.68543020606e+07
  +7.86560316561e+07
  +8.05000000000e+07
</indep>
<dep dBS11 frequency>
  -6.61389853348e+01
  -6.59335710929e+01
  -6.57279584795e+01
  -6.55221378768e+01
  -6.53160991903e+01
  -6.51098318243e+01
  -6.49033246553e+01
  -6.46965660053e+01
  -6.44895436118e+01
  -6.42822445980e+01
  -6.40746554396e+01
  -6.38667619310e+01
  -6.36585491485e+01
  -6.34500014121e+01
  -6.32411022446e+01
  -6.30318343283e+01
  -6.28221794593e+01
  -6.26121184989e+01
  -6.24016313219e+01
  -6.21906967617e+01
  -6.19792925522e+01
  -6.17673952658e+01
  -6.15549802474e+01
  -6.13420215442e+01
  -6.11284918310e+01
  -6.09143623304e+01
  -6.06996027273e+01
  -6.04841810787e+01
  -6.02680637159e+01
  -6.00512151408e+01
  -5.98335979145e+01
  -5.96151725381e+01
  -5.93958973248e+01
  -5.91757282625e+01
  -5.89546188658e+01
  -5.87325200178e+01
  -5.85093797985e+01
  -5.82851433003e+01
  -5.80597524293e+01
  -5.78331456894e+01
  -5.76052579497e+01
  -5.73760201921e+01
  -5.71453592370e+01
  -5.69131974461e+01
  -5.66794523982e+01
  -5.64440365363e+01
  -5.62068567822e+01
  -5.59678141156e+01
  -5.57268031122e+01
  -5.54837114385e+01
  -5.52384192948e+01
  -5.49907988033e+01
  -5.47407133322e+01
  -5.44880167490e+01
  -5.42325525928e+01
  -5.39741531555e+01
  -5.37126384593e+01
  -5.34478151161e+01
  -5.31794750514e+01
  -5.29073940740e+01
  -5.26313302669e+01
  -5.23510221739e+01
  -5.20661867470e+01
  -5.17765170186e+01
  -5.14816794504e+01
  -5.11813109049e+01
  -5.08750151724e+01
  -5.05623589726e+01
  -5.02428673322e+01
  -4.99160182179e+01
  -4.95812362761e+01
  -4.92378854930e+01
  -4.88852605454e+01
  -4.85225765493e+01
  -4.81489568375e+01
  -4.77634182926e+01
  -4.73648536223e+01
  -4.69520097798e+01
  -4.65234614768e+01
  -4.60775783843e+01
  -4.56124841243e+01
  -4.51260044587e+01
  -4.46156010651e+01
  -4.40782858046e+01
  -4.35105081509e+01
  -4.29080050188e+01
  -4.22655968353e+01
  -4.15769049663e+01
  -4.08339510389e+01
  -4.00265734741e+01
  -3.91415510243e+01
  -3.81612368453e+01
  -3.70613333667e+01
  -3.58070648286e+01
  -3.43461261943e+01
  -3.25944775260e+01
  -3.04039984683e+01
  -2.74743322429e+01
  -2.30288071304e+01
  -1.34732902460e+01
  -1.35425640578e+01
  -2.30575428150e+01
  -2.74918759851e+01
  -3.04166006496e+01
  -3.26043116789e+01
  -3.43541943125e+01
  -3.58139099866e+01
  -3.70672825802e+01
  -3.81665021738e+01
  -3.91462777658e+01
  -4.00308655115e+01
  -4.08378852053e+01
  -4.15805396805e+01
  -4.22689775472e+01
  -4.29111677809e+01
  -4.35134820394e+01
  -4.40810946083e+01
  -4.46182644923e+01
  -4.51285390185e+01
  -4.56149037816e+01
  -4.60798950559e+01
  -4.65256854121e+01
  -4.69541498563e+01
  -4.73669175793e+01
  -4.77654129165e+01
  -4.81508881110e+01
  -4.85244497725e+01
  -4.88870804353e+01
  -4.92396562646e+01
  -4.95829617105e+01
  -4.99177017194e+01
  -5.02445119756e+01
  -5.05639675441e+01
  -5.08765902034e+01
  -5.11828547019e+01
  -5.14831941202e+01
  -5.17780044900e+01
  -5.20676487898e+01
  -5.23524604154e+01
  -5.26327462062e+01
  -5.29087890947e+01
  -5.31808504327e+01
  -5.34491720425e+01
  -5.37139780295e+01
  -5.39754763898e+01
  -5.42338604404e+01
  -5.44893100937e+01
  -5.47419929980e+01
  -5.49920655594e+01
  -5.52396738602e+01
  -5.54849544857e+01
  -5.57280352709e+01
  -5.59690359759e+01
  -5.62080688980e+01
  -5.64452394273e+01
  -5.66806465530e+01
  -5.69143833240e+01
  -5.71465372702e+01
  -5.73771907876e+01
  -5.76064214911e+01
  -5.78343025383e+01
  -5.80609029270e+01
  -5.82862877688e+01
  -5.85105185419e+01
  -5.87336533235e+01
  -5.89557470055e+01
  -5.91768514932e+01
  -5.93970158897e+01
  -5.96162866673e+01
  -5.98347078260e+01
  -6.00523210412e+01
  -6.02691658008e+01
  -6.04852795337e+01
  -6.07006977282e+01
  -6.09154540441e+01
  -6.11295804161e+01
  -6.13431071508e+01
  -6.15560630182e+01
  -6.17684753364e+01
  -6.19803700513e+01
  -6.21917718117e+01
  -6.24027040390e+01
  -6.26131889935e+01
  -6.28232478365e+01
  -6.30329006880e+01
  -6.32421666818e+01
  -6.34510640172e+01
  -6.36596100074e+01
  -6.38678211255e+01
  -6.40757130476e+01
  -6.42833006935e+01
  -6.44905982654e+01
  -6.46976192842e+01
  -6.49043766235e+01
  -6.51108825425e+01
  -6.53171487167e+01
  -6.55231862666e+01
  -6.57290057853e+01
  -6.59346173649e+01
  -6.61400306208e+01
</dep>
<dep dBS21 frequency>
  -1.05653972679e-06
  -1.10771301137e-06
  -1.16141791817e-06
  -1.21778490105e-06
  -1.27695165405e-06
  -1.33906357238e-06
  -1.40427419787e-06
  -1.47274577254e-06
  -1.54464977958e-06
  -1.62016756295e-06
  -1.69949093632e-06
  -1.78282291695e-06
  -1.87037845038e-06
  -1.96238523879e-06
  -2.05908459443e-06
  -2.16073241700e-06
  -2.26760015792e-06
  -2.37997601906e-06
  -2.49816606409e-06
  -2.62249559220e-06
  -2.75331051852e-06
  -2.89097894649e-06
  -3.03589284624e-06
  -3.18846986278e-06
  -3.34915537429e-06
  -3.51842464845e-06
  -3.69678526190e-06
  -3.88477971940e-06
  -4.08298838008e-06
  -4.29203259734e-06
  -4.51257825216e-06
  -4.74533956754e-06
  -4.99108341808e-06
  -5.25063401287e-06
  -5.52487811487e-06
  -5.81477079229e-06
  -6.12134190708e-06
  -6.44570319272e-06
  -6.78905625918e-06
  -7.15270148314e-06
  -7.53804790740e-06
  -7.94662445282e-06
  -8.38009238524e-06
  -8.84025940115e-06
  -9.32909547517e-06
  -9.84875082958e-06
  -1.04015761527e-05
  -1.09901456829e-05
  -1.16172833160e-05
  -1.22860925288e-05
  -1.29999904100e-05
  -1.37627467710e-05
  -1.45785290652e-05
  -1.54519540845e-05
  -1.63881477757e-05
  -1.73928145172e-05
  -1.84723176867e-05
  -1.96337737155e-05
  -2.08851621008e-05
  -2.22354547389e-05
  -2.36947684662e-05
  -2.52745456776e-05
  -2.69877691089e-05
  -2.88492184276e-05
  -3.08757780262e-05
  -3.30868082936e-05
  -3.55045955120e-05
  -3.81549001876e-05
  -4.10676291407e-05
  -4.42776643163e-05
  -4.78258915845e-05
  -5.17604865468e-05
  -5.61385335343e-05
  -6.10280801283e-05
  -6.65107665337e-05
  -7.26852211770e-05
  -7.96714887743e-05
  -8.76168658954e-05
  -9.67036794580e-05
  -1.07159784324e-04
  -1.19272922987e-04
  -1.33410661002e-04
  -1.50048516912e-04
  -1.69810375107e-04
  -1.93527716640e-04
  -2.22328391414e-04
  -2.57773053657e-04
  -3.02070919896e-04
  -3.58432291621e-04
  -4.31666699826e-04
  -5.29243668084e-04
  -6.63275247141e-04
  -8.54463856828e-04
  -1.14060391361e-03
  -1.59680369764e-03
  -2.39032013186e-03
  -3.95897170668e-03
  -7.77570569137e-03
  -2.16763905384e-02
  -1.99711275529e-01
  -1.96478389099e-01
  -2.15330842271e-02
  -7.74433037443e-03
  -3.94749515964e-03
  -2.38491213602e-03
  -1.59383944086e-03
  -1.13880732455e-03
  -8.53294049947e-04
  -6.62471527052e-04
  -5.28667932167e-04
  -4.31240282615e-04
  -3.58107730310e-04
  -3.01818206513e-04
  -2.57572465531e-04
  -2.22166534924e-04
  -1.93395238403e-04
  -1.69700583449e-04
  -1.49956522265e-04
  -1.33332823532e-04
  -1.19206488064e-04
  -1.07102636258e-04
  -9.66541715673e-05
  -8.75737010562e-05
  -7.96336340524e-05
  -7.26518457584e-05
  -6.64811960664e-05
  -6.10017626463e-05
  -5.61150137294e-05
  -5.17393861455e-05
  -4.78068942174e-05
  -4.42605037364e-05
  -4.10520799799e-05
  -3.81407706559e-05
  -3.54917215449e-05
  -3.30750488945e-05
  -3.08650114577e-05
  -2.88393391396e-05
  -2.69786852434e-05
  -2.52661769319e-05
  -2.36870444499e-05
  -2.22283134997e-05
  -2.08785489403e-05
  -1.96276402097e-05
  -1.84666208184e-05
  -1.73875159621e-05
  -1.63832133306e-05
  -1.54473531157e-05
  -1.45742340679e-05
  -1.37587330162e-05
  -1.29962355776e-05
  -1.22825764739e-05
  -1.16139877860e-05
  -1.09870541029e-05
  -1.03986734791e-05
  -9.84602333598e-06
  -9.32653066622e-06
  -8.83784582104e-06
  -8.37781957673e-06
  -7.94448281453e-06
  -7.53602861954e-06
  -7.15079643807e-06
  -6.78725799635e-06
  -6.44400482535e-06
  -6.11973706478e-06
  -5.81325360517e-06
  -5.52344313206e-06
  -5.24927619717e-06
  -4.98979808430e-06
  -4.74412235881e-06
  -4.51142512891e-06
  -4.29093980446e-06
  -4.08195239102e-06
  -3.88379726893e-06
  -3.69585329213e-06
  -3.51754031171e-06
  -3.34831599071e-06
  -3.18767293667e-06
  -3.03513603863e-06
  -2.89026006448e-06
  -2.75262749459e-06
  -2.62184649624e-06
  -2.49754908799e-06
  -2.37938944534e-06
  -2.26704239255e-06
  -2.16020193827e-06
  -2.05857998574e-06
  -1.96190515007e-06
  -1.86992162753e-06
  -1.78238816227e-06
  -1.69907711817e-06
  -1.61977362443e-06
  -1.54427471682e-06
  -1.47238863470e-06
  -1.40393409007e-06
  -1.33873964601e-06
  -1.27664310293e-06
  -1.21749095852e-06
  -1.16113787451e-06
  -1.10744618190e-06
  -1.05628545672e-06
</dep>
<dep S[1,1] frequency>
  +6.64514991922e-07+j4.93230971085e-04
  +6.96700506619e-07+j5.05034483003e-04
  +7.30478272037e-07+j5.17132274003e-04
  +7.65930340596e-07+j5.29532538797e-04
  +8.03143314576e-07+j5.42243761424e-04
  +8.42208629059e-07+j5.55274729521e-04
  +8.83222859072e-07+j5.68634549540e-04
  +9.26288042269e-07+j5.82332662970e-04
  +9.71512032155e-07+j5.96378863658e-04
  +1.01900887417e-06+j6.10783316303e-04
  +1.06889921281e-06+j6.25556576219e-04
  +1.12131072794e-06+j6.40709610492e-04
  +1.17637860753e-06+j6.56253820608e-04
  +1.23424605503e-06+j6.72201066711e-04
  +1.29506484148e-06+j6.88563693608e-04
  +1.35899589909e-06+j7.05354558671e-04
  +1.42620996563e-06+j7.22587061804e-04
  +1.49688827938e-06+j7.40275177651e-04
  +1.57122334110e-06+j7.58433490248e-04
  +1.64941973096e-06+j7.77077230319e-04
  +1.73169500495e-06+j7.96222315476e-04
  +1.81828066381e-06+j8.15885393568e-04
  +1.90942321759e-06+j8.36083889473e-04
  +2.00538533623e-06+j8.56836055661e-04
  +2.10644711501e-06+j8.78161026867e-04
  +2.21290745289e-06+j9.00078879283e-04
  +2.32508556458e-06+j9.22610694683e-04
  +2.44332263855e-06+j9.45778629986e-04
  +2.56798365278e-06+j9.69605992765e-04
  +2.69945937764e-06+j9.94117323340e-04
  +2.83816857344e-06+j1.01933848406e-03
  +2.98456041897e-06+j1.04529675660e-03
  +3.13911718819e-06+j1.07202094799e-03
  +3.30235721024e-06+j1.09954150645e-03
  +3.47483814933e-06+j1.12789064795e-03
  +3.65716064060e-06+j1.15710249471e-03
  +3.84997232517e-06+j1.18721322700e-03
  +4.05397234821e-06+j1.21826124969e-03
  +4.26991636249e-06+j1.25028737522e-03
  +4.49862211982e-06+j1.28333502497e-03
  +4.74097572623e-06+j1.31745045105e-03
  +4.99793864678e-06+j1.35268298117e-03
  +5.27055557131e-06+j1.38908528916e-03
  +5.55996326634e-06+j1.42671369457e-03
  +5.86740054825e-06+j1.46562849477e-03
  +6.19421954795e-06+j1.50589433393e-03
  +6.54189847193e-06+j1.54758061358e-03
  +6.91205606662e-06+j1.59076195039e-03
  +7.30646808267e-06+j1.63551868743e-03
  +7.72708603125e-06+j1.68193746656e-03
  +8.17605863090e-06+j1.73011187034e-03
  +8.65575637288e-06+j1.78014314369e-03
  +9.16879975232e-06+j1.83214100687e-03
  +9.71809179162e-06+j1.88622457378e-03
  +1.03068556230e-05+j1.94252339138e-03
  +1.09386780557e-05+j2.00117861972e-03
  +1.16175602278e-05+j2.06234437488e-03
  +1.23479767042e-05+j2.12618926172e-03
  +1.31349446627e-05+j2.19289812851e-03
  +1.39841051865e-05+j2.26267408170e-03
  +1.49018191458e-05+j2.33574080701e-03
  +1.58952807355e-05+j2.41234525227e-03
  +1.69726524893e-05+j2.49276073987e-03
  +1.81432265382e-05+j2.57729059084e-03
  +1.94176181084e-05+j2.66627236167e-03
  +2.08079988399e-05+j2.76008281793e-03
  +2.23283795722e-05+j2.85914379878e-03
  +2.39949549610e-05+j2.96392916403e-03
  +2.58265258546e-05+j3.07497306442e-03
  +2.78450201754e-05+j3.19287983850e-03
  +3.00761394250e-05+j3.31833592207e-03
  +3.25501667004e-05+j3.45212426436e-03
  +3.53029840103e-05+j3.59514188868e-03
  +3.83773632319e-05+j3.74842142795e-03
  +4.18246181659e-05+j3.91315772575e-03
  +4.57067379184e-05+j4.09074094965e-03
  +5.00991687815e-05+j4.28279815573e-03
  +5.50944801118e-05+j4.49124593229e-03
  +6.08072504188e-05+j4.71835772812e-03
  +6.73806609043e-05+j4.96685087657e-03
  +7.49955140184e-05+j5.24000038147e-03
  +8.38827525579e-05+j5.54178958360e-03
  +9.43411227979e-05+j5.87711244891e-03
  +1.06762547020e-04+j6.25204935910e-03
  +1.21669305188e-04+j6.67424956653e-03
  +1.39769751729e-04+j7.15347174860e-03
  +1.62043930978e-04+j7.70236453292e-03
  +1.89878938038e-04+j8.33762117480e-03
  +2.25290022432e-04+j9.08173573062e-03
  +2.71295624077e-04+j9.96576088340e-03
  +3.32582203535e-04+j1.10338036130e-02
  +4.16746162176e-04+j1.23506854249e-02
  +5.36765279244e-04+j1.40157091659e-02
  +7.16316289865e-04+j1.61890754089e-02
  +1.00240786123e-03+j1.91469379379e-02
  +1.49957528424e-03+j2.34092158483e-02
  +2.48081360703e-03+j3.00835024264e-02
  +4.86036783004e-03+j4.20142520550e-02
  +1.34428184652e-02+j6.92678048997e-02
  +1.14136784904e-01+j1.78652503712e-01
  +1.15300521794e-01-j1.75893446085e-01
  +1.34891414524e-02-j6.90213551980e-02
  +4.87041862288e-03-j4.19271754010e-02
  +2.48448083465e-03-j3.00392866279e-02
  +1.50130158116e-03-j2.33825074269e-02
  +1.00335359367e-03-j1.91290627271e-02
  +7.16889311200e-04-j1.61762718190e-02
  +5.37138318358e-04-j1.40060843128e-02
  +4.17002427780e-04-j1.23431836110e-02
  +3.32765760325e-04-j1.10277898099e-02
  +2.71431566156e-04-j9.96083027518e-03
  +2.25393487792e-04-j9.07761810235e-03
  +1.89959496343e-04-j8.33412928234e-03
  +1.62107871271e-04-j7.69936453799e-03
  +1.39821344562e-04-j7.15086545156e-03
  +1.21711532704e-04-j6.67196328808e-03
  +1.06797542629e-04-j6.25002673907e-03
  +9.43704453066e-05-j5.87530964158e-03
  +8.39075623136e-05-j5.54017196817e-03
  +7.50166891503e-05-j5.23854025817e-03
  +6.73988758466e-05-j4.96552582024e-03
  +6.08230300823e-05-j4.71714939033e-03
  +5.51082379677e-05-j4.49013915577e-03
  +5.01112340901e-05-j4.28178030985e-03
  +4.57173755051e-05-j4.08980142540e-03
  +4.18340429804e-05-j3.91228754706e-03
  +3.83857512116e-05-j3.74761294942e-03
  +3.53104802824e-05-j3.59438855798e-03
  +3.25568918355e-05-j3.45142043378e-03
  +3.00821942641e-05-j3.31767669777e-03
  +2.78504895820e-05-j3.19226095885e-03
  +2.58314816601e-05-j3.07439080121e-03
  +2.39994582965e-05-j2.96338024161e-03
  +2.23324827293e-05-j2.85862532743e-03
  +2.08117467593e-05-j2.75959223875e-03
  +1.94210495907e-05-j2.66580740050e-03
  +1.81463752236e-05-j2.57684921978e-03
  +1.69755476607e-05-j2.49234114480e-03
  +1.58979479816e-05-j2.41194580544e-03
  +1.49042809048e-05-j2.33536004363e-03
  +1.39863812043e-05-j2.26231068008e-03
  +1.31370523705e-05-j2.19255089291e-03
  +1.23499315392e-05-j2.12585710773e-03
  +1.16193758996e-05-j2.06202631667e-03
  +1.09403667762e-05-j2.00087375908e-03
  +1.03084282961e-05-j1.94223090812e-03
  +9.71955818130e-06-j1.88594371743e-03
  +9.17016862317e-06-j1.83187108937e-03
  +8.65703560893e-06-j1.77988353295e-03
  +8.17725534202e-06-j1.72986198467e-03
  +7.72820664180e-06-j1.68169676965e-03
  +7.30751841005e-06-j1.63528668396e-03
  +6.91304139028e-06-j1.59053818216e-03
  +6.54282359053e-06-j1.54736465603e-03
  +6.19508883259e-06-j1.50568579305e-03
  +5.86821798537e-06-j1.46542700436e-03
  +5.56073250285e-06-j1.42651891379e-03
  +5.27127994282e-06-j1.38889690028e-03
  +4.99862121284e-06-j1.35250068764e-03
  +4.74161929720e-06-j1.31727397569e-03
  +4.49922927914e-06-j1.28316410837e-03
  +4.27048948998e-06-j1.25012177431e-03
  +4.05451363877e-06-j1.21810073638e-03
  +3.85048380591e-06-j1.18705758707e-03
  +3.65764418436e-06-j1.15695152667e-03
  +3.47529549288e-06-j1.12774416210e-03
  +3.30278996080e-06-j1.09939932397e-03
  +3.13952683806e-06-j1.07188290013e-03
  +2.98494835532e-06-j1.04516268397e-03
  +2.83853608490e-06-j1.01920823593e-03
  +2.69980766349e-06-j9.93990757024e-04
  +2.56831383316e-06-j9.69482973081e-04
  +2.44363575513e-06-j9.45659028710e-04
  +2.32538259193e-06-j9.22494390098e-04
  +2.21318930066e-06-j8.99965755727e-04
  +2.10671463480e-06-j8.78050974339e-04
  +2.00563932440e-06-j8.56728969453e-04
  +1.90966441965e-06-j8.35979669827e-04
  +1.81850977998e-06-j8.15783945368e-04
  +1.73191269093e-06-j7.96123547952e-04
  +1.64962660326e-06-j7.76981056780e-04
