<Qucs Dataset 0.0.18>
<indep frequency 200>
  +3.45000000000e+05
  +3.53271621339e+05
  +3.61741560705e+05
  +3.70414572916e+05
  +3.79295526787e+05
  +3.88389407868e+05
  +3.97701321242e+05
  +4.07236494388e+05
  +4.17000280118e+05
  +4.26998159582e+05
  +4.37235745346e+05
  +4.47718784538e+05
  +4.58453162080e+05
  +4.69444903988e+05
  +4.80700180757e+05
  +4.92225310823e+05
  +5.04026764111e+05
  +5.16111165668e+05
  +5.28485299382e+05
  +5.41156111786e+05
  +5.54130715966e+05
  +5.67416395544e+05
  +5.81020608777e+05
  +5.94950992736e+05
  +6.09215367597e+05
  +6.23821741031e+05
  +6.38778312697e+05
  +6.54093478847e+05
  +6.69775837042e+05
  +6.85834190972e+05
  +7.02277555404e+05
  +7.19115161239e+05
  +7.36356460696e+05
  +7.54011132618e+05
  +7.72089087906e+05
  +7.90600475080e+05
  +8.09555685979e+05
  +8.28965361593e+05
  +8.48840398040e+05
  +8.69191952677e+05
  +8.90031450367e+05
  +9.11370589895e+05
  +9.33221350529e+05
  +9.55595998752e+05
  +9.78507095142e+05
  +1.00196750143e+06
  +1.02599038770e+06
  +1.05058923983e+06
  +1.07577786700e+06
  +1.10157040950e+06
  +1.12798134662e+06
  +1.15502550481e+06
  +1.18271806600e+06
  +1.21107457613e+06
  +1.24011095383e+06
  +1.26984349942e+06
  +1.30028890402e+06
  +1.33146425893e+06
  +1.36338706524e+06
  +1.39607524362e+06
  +1.42954714442e+06
  +1.46382155794e+06
  +1.49891772500e+06
  +1.53485534772e+06
  +1.57165460060e+06
  +1.60933614186e+06
  +1.64792112496e+06
  +1.68743121059e+06
  +1.72788857873e+06
  +1.76931594117e+06
  +1.81173655419e+06
  +1.85517423171e+06
  +1.89965335855e+06
  +1.94519890422e+06
  +1.99183643687e+06
  +2.03959213767e+06
  +2.08849281549e+06
  +2.13856592198e+06
  +2.18983956695e+06
  +2.24234253417e+06
  +2.29610429752e+06
  +2.35115503753e+06
  +2.40752565833e+06
  +2.46524780503e+06
  +2.52435388140e+06
  +2.58487706816e+06
  +2.64685134154e+06
  +2.71031149237e+06
  +2.77529314563e+06
  +2.84183278043e+06
  +2.90996775048e+06
  +2.97973630509e+06
  +3.05117761061e+06
  +3.12433177244e+06
  +3.19923985754e+06
  +3.27594391746e+06
  +3.35448701199e+06
  +3.43491323329e+06
  +3.51726773068e+06
  +3.60159673594e+06
  +3.68794758932e+06
  +3.77636876606e+06
  +3.86690990365e+06
  +3.95962182966e+06
  +4.05455659030e+06
  +4.15176747961e+06
  +4.25130906940e+06
  +4.35323723988e+06
  +4.45760921103e+06
  +4.56448357471e+06
  +4.67392032757e+06
  +4.78598090472e+06
  +4.90072821422e+06
  +5.01822667240e+06
  +5.13854224002e+06
  +5.26174245927e+06
  +5.38789649175e+06
  +5.51707515723e+06
  +5.64935097346e+06
  +5.78479819683e+06
  +5.92349286409e+06
  +6.06551283503e+06
  +6.21093783618e+06
  +6.35984950557e+06
  +6.51233143856e+06
  +6.66846923477e+06
  +6.82835054614e+06
  +6.99206512609e+06
  +7.15970488001e+06
  +7.33136391671e+06
  +7.50713860140e+06
  +7.68712760965e+06
  +7.87143198290e+06
  +8.06015518509e+06
  +8.25340316081e+06
  +8.45128439473e+06
  +8.65390997253e+06
  +8.86139364323e+06
  +9.07385188309e+06
  +9.29140396095e+06
  +9.51417200521e+06
  +9.74228107240e+06
  +9.97585921734e+06
  +1.02150375651e+07
  +1.04599503845e+07
  +1.07107351637e+07
  +1.09675326869e+07
  +1.12304871142e+07
  +1.14997460616e+07
  +1.17754606846e+07
  +1.20577857625e+07
  +1.23468797857e+07
  +1.26429050445e+07
  +1.29460277203e+07
  +1.32564179787e+07
  +1.35742500652e+07
  +1.38997024028e+07
  +1.42329576927e+07
  +1.45742030161e+07
  +1.49236299397e+07
  +1.52814346234e+07
  +1.56478179298e+07
  +1.60229855376e+07
  +1.64071480567e+07
  +1.68005211465e+07
  +1.72033256370e+07
  +1.76157876527e+07
  +1.80381387398e+07
  +1.84706159958e+07
  +1.89134622028e+07
  +1.93669259638e+07
  +1.98312618423e+07
  +2.03067305050e+07
  +2.07935988683e+07
  +2.12921402484e+07
  +2.18026345139e+07
  +2.23253682440e+07
  +2.28606348886e+07
  +2.34087349331e+07
  +2.39699760676e+07
  +2.45446733590e+07
  +2.51331494283e+07
  +2.57357346315e+07
  +2.63527672453e+07
  +2.69845936565e+07
  +2.76315685571e+07
  +2.82940551429e+07
  +2.89724253176e+07
  +2.96670599017e+07
  +3.03783488459e+07
  +3.11066914504e+07
  +3.18524965889e+07
  +3.26161829381e+07
  +3.33981792128e+07
  +3.41989244066e+07
  +3.50188680381e+07
  +3.58584704037e+07
  +3.67182028355e+07
  +3.75985479662e+07
  +3.85000000000e+07
</indep>
<dep dBS11 frequency>
  -1.38766722437e-12
  -1.60560523181e-12
  -1.85825902805e-12
  -2.14852159548e-12
  -2.48507188131e-12
  -2.87273152286e-12
  -3.32403677721e-12
  -3.84284495422e-12
  -4.44554962081e-12
  -5.14661568900e-12
  -5.95375777850e-12
  -6.89494138586e-12
  -7.98559575054e-12
  -9.24500742186e-12
  -1.07117494985e-11
  -1.24147518044e-11
  -1.43868014735e-11
  -1.66780435341e-11
  -1.93453733066e-11
  -2.24427931292e-11
  -2.60397345794e-11
  -3.02268444392e-11
  -3.50947694904e-11
  -4.07640506663e-11
  -4.73687294848e-11
  -5.50679199779e-11
  -6.40371297444e-11
  -7.45097260313e-11
  -8.67345053251e-11
  -1.01008480485e-10
  -1.17694238639e-10
  -1.37211262236e-10
  -1.60054251264e-10
  -1.86813374135e-10
  -2.18188732588e-10
  -2.54999040643e-10
  -2.98225019334e-10
  -3.49040255188e-10
  -4.08831451102e-10
  -4.79260143301e-10
  -5.62307060403e-10
  -6.60340590667e-10
  -7.76218036377e-10
  -9.13359867060e-10
  -1.07588086802e-09
  -1.26875407600e-09
  -1.49800171604e-09
  -1.77091121082e-09
  -2.09633508648e-09
  -2.48508152529e-09
  -2.95033674106e-09
  -3.50825418322e-09
  -4.17869803329e-09
  -4.98614099382e-09
  -5.96086391169e-09
  -7.14044855711e-09
  -8.57170917152e-09
  -1.03131939331e-08
  -1.24384270259e-08
  -1.50401536090e-08
  -1.82358499846e-08
  -2.21751228822e-08
  -2.70494144509e-08
  -3.31050631114e-08
  -4.06608610673e-08
  -5.01319214112e-08
  -6.20623138628e-08
  -7.71700752401e-08
  -9.64098975040e-08
  -1.21061152066e-07
  -1.52852920174e-07
  -1.94143285546e-07
  -2.48179586663e-07
  -3.19480835454e-07
  -4.14407122101e-07
  -5.42019501106e-07
  -7.15399126340e-07
  -9.53704549059e-07
  -1.28543941137e-06
  -1.75374664703e-06
  -2.42517405506e-06
  -3.40453892073e-06
  -4.86081012483e-06
  -7.07351820818e-06
  -1.05187549739e-05
  -1.60345464404e-05
  -2.51525135809e-05
  -4.07958770598e-05
  -6.88328680429e-05
  -1.21768275290e-04
  -2.28230604912e-04
  -4.59792806176e-04
  -1.01639013323e-03
  -2.54370532122e-03
  -7.58758923203e-03
  -2.96611256231e-02
  -1.87714771999e-01
  -3.38099550507e+00
  -7.91608033726e+00
  -1.03929712609e+01
  -1.08037777587e+01
  -8.03085797226e+00
  -3.44049677960e+00
  -1.90780211800e-01
  -3.00385235115e-02
  -7.66632692798e-03
  -2.56601210688e-03
  -1.02411676349e-03
  -4.62881042076e-04
  -2.29605101267e-04
  -1.22433615471e-04
  -6.91774072730e-05
  -4.09844574991e-05
  -2.52606260928e-05
  -1.60990122275e-05
  -1.05585151713e-05
  -7.09877028850e-06
  -4.87726494163e-06
  -3.41550687991e-06
  -2.43263338050e-06
  -1.75891181075e-06
  -1.28907427945e-06
  -9.56300091008e-07
  -7.17277216108e-07
  -5.43394911901e-07
  -4.15425521435e-07
  -3.20242536561e-07
  -2.48754577555e-07
  -1.94581048287e-07
  -1.53188853302e-07
  -1.21320820387e-07
  -9.66119713647e-08
  -7.73283242732e-08
  -6.21869560826e-08
  -5.02306376864e-08
  -4.07394363986e-08
  -3.31679073686e-08
  -2.70999047087e-08
  -2.22158512529e-08
  -1.82688290198e-08
  -1.50669580554e-08
  -1.24602941155e-08
  -1.03310851006e-08
  -8.58639491454e-09
  -7.15253736625e-09
  -5.97084180800e-09
  -4.99439660127e-09
  -4.18554379399e-09
  -3.51394853691e-09
  -2.95507930355e-09
  -2.48904201820e-09
  -2.09964562267e-09
  -1.77368365228e-09
  -1.50032863822e-09
  -1.27071262509e-09
  -1.07752504635e-09
  -9.14748498612e-10
  -7.77393551559e-10
  -6.61333847958e-10
  -5.63143132317e-10
  -4.79970852644e-10
  -4.09438013078e-10
  -3.49557134710e-10
  -2.98665716986e-10
  -2.55370306718e-10
  -2.18502139014e-10
  -1.87085314480e-10
  -1.60284725529e-10
  -1.37408949366e-10
  -1.17862031619e-10
  -1.01151200950e-10
  -8.68540819309e-11
  -7.46158020527e-11
  -6.41335624911e-11
  -5.51421731928e-11
  -4.74352680800e-11
  -4.08228746418e-11
  -3.51449145187e-11
  -3.02673461928e-11
  -2.60773433506e-11
  -2.24717229531e-11
  -1.93704458207e-11
  -1.67069733581e-11
  -1.44080166778e-11
  -1.24311453714e-11
  -1.07252500830e-11
  -9.26140098879e-12
  -7.99620335267e-12
  -6.90265600559e-12
  -5.96340105317e-12
  -5.15529463620e-12
  -4.45519289548e-12
  -3.84863091902e-12
  -3.32596543214e-12
  -2.87658883273e-12
  -2.48410755384e-12
  -2.15430756028e-12
  -1.86404499285e-12
  -1.60946254168e-12
  -1.39152453424e-12
</dep>
<dep dBS21 frequency>
  -1.24945330736e+02
  -1.24316482463e+02
  -1.23687072192e+02
  -1.23057072102e+02
  -1.22426452968e+02
  -1.21795184085e+02
  -1.21163233193e+02
  -1.20530566390e+02
  -1.19897148049e+02
  -1.19262940722e+02
  -1.18627905047e+02
  -1.17991999641e+02
  -1.17355180994e+02
  -1.16717403348e+02
  -1.16078618581e+02
  -1.15438776073e+02
  -1.14797822569e+02
  -1.14155702031e+02
  -1.13512355487e+02
  -1.12867720859e+02
  -1.12221732793e+02
  -1.11574322472e+02
  -1.10925417411e+02
  -1.10274941255e+02
  -1.09622813543e+02
  -1.08968949474e+02
  -1.08313259646e+02
  -1.07655649785e+02
  -1.06996020448e+02
  -1.06334266709e+02
  -1.05670277824e+02
  -1.05003936868e+02
  -1.04335120351e+02
  -1.03663697799e+02
  -1.02989531307e+02
  -1.02312475061e+02
  -1.01632374816e+02
  -1.00949067339e+02
  -1.00262379804e+02
  -9.95721291390e+01
  -9.88781213212e+01
  -9.81801506090e+01
  -9.74779987110e+01
  -9.67714338822e+01
  -9.60602099402e+01
  -9.53440651925e+01
  -9.46227212651e+01
  -9.38958818217e+01
  -9.31632311595e+01
  -9.24244326698e+01
  -9.16791271429e+01
  -9.09269309032e+01
  -9.01674337485e+01
  -8.94001966715e+01
  -8.86247493339e+01
  -8.78405872594e+01
  -8.70471687079e+01
  -8.62439111855e+01
  -8.54301875379e+01
  -8.46053215659e+01
  -8.37685830899e+01
  -8.29191823790e+01
  -8.20562638416e+01
  -8.11788988578e+01
  -8.02860776072e+01
  -7.93766997188e+01
  -7.84495635312e+01
  -7.75033537063e+01
  -7.65366268833e+01
  -7.55477949861e+01
  -7.45351057058e+01
  -7.34966195622e+01
  -7.24301827943e+01
  -7.13333951319e+01
  -7.02035712356e+01
  -6.90376942448e+01
  -6.78323594018e+01
  -6.65837050796e+01
  -6.52873276580e+01
  -6.39381754567e+01
  -6.25304151783e+01
  -6.10572617821e+01
  -5.95107589744e+01
  -5.78814918989e+01
  -5.61582049880e+01
  -5.43272843283e+01
  -5.23720417673e+01
  -5.02717007646e+01
  -4.79999188738e+01
  -4.55225624490e+01
  -4.27942184140e+01
  -3.97524512863e+01
  -3.63077468940e+01
  -3.23244469186e+01
  -2.75805982400e+01
  -2.16707889527e+01
  -1.37363779357e+01
  -2.66877210273e+00
  -7.65392111460e-01
  -4.16027982728e-01
  -3.76799487399e-01
  -7.43616369348e-01
  -2.61890244446e+00
  -1.36675507611e+01
  -2.16160678988e+01
  -2.75358023560e+01
  -3.22865390447e+01
  -3.62748604109e+01
  -3.97233806113e+01
  -4.27681425872e+01
  -4.54988975853e+01
  -4.79782348932e+01
  -5.02516716980e+01
  -5.23534146374e+01
  -5.43098588578e+01
  -5.61418199072e+01
  -5.78660154337e+01
  -5.94960820697e+01
  -6.10432931676e+01
  -6.25170777066e+01
  -6.39254033382e+01
  -6.52750643421e+01
  -6.65719016077e+01
  -6.78209731133e+01
  -6.90266877468e+01
  -7.01929115755e+01
  -7.13230531268e+01
  -7.24201324822e+01
  -7.34868377500e+01
  -7.45255715939e+01
  -7.55384898544e+01
  -7.65275338275e+01
  -7.74944574146e+01
  -7.84408500943e+01
  -7.93681564675e+01
  -8.02776929728e+01
  -8.11706622519e+01
  -8.20481655516e+01
  -8.29112134771e+01
  -8.37607353540e+01
  -8.45975874099e+01
  -8.54225599505e+01
  -8.62363836762e+01
  -8.70397352592e+01
  -8.78332422843e+01
  -8.86174876379e+01
  -8.93930134191e+01
  -9.01603244327e+01
  -9.09198913185e+01
  -9.16721533609e+01
  -9.24175210170e+01
  -9.31563781978e+01
  -9.38890843297e+01
  -9.46159762227e+01
  -9.53373697651e+01
  -9.60535614657e+01
  -9.67648298587e+01
  -9.74714367852e+01
  -9.81736285661e+01
  -9.88716370753e+01
  -9.95656807245e+01
  -1.00255965367e+02
  -1.00942685132e+02
  -1.01626023189e+02
  -1.02306152454e+02
  -1.02983236248e+02
  -1.03657428896e+02
  -1.04328876288e+02
  -1.04997716400e+02
  -1.05664079773e+02
  -1.06328089959e+02
  -1.06989863943e+02
  -1.07649512524e+02
  -1.08307140680e+02
  -1.08962847904e+02
  -1.09616728516e+02
  -1.10268871963e+02
  -1.10919363088e+02
  -1.11568282387e+02
  -1.12215706258e+02
  -1.12861707216e+02
  -1.13506354114e+02
  -1.14149712337e+02
  -1.14791843990e+02
  -1.15432808077e+02
  -1.16072660659e+02
  -1.16711455018e+02
  -1.17349241797e+02
  -1.17986069142e+02
  -1.18621982831e+02
  -1.19257026394e+02
  -1.19891241235e+02
  -1.20524666733e+02
  -1.21157340353e+02
  -1.21789297740e+02
  -1.22420572810e+02
  -1.23051197839e+02
  -1.23681203545e+02
  -1.24310619168e+02
  -1.24939472539e+02
</dep>
<dep S[1,1] frequency>
  -9.99946341027e-01+j1.03592985223e-02
  -9.99943687543e-01+j1.06123391621e-02
  -9.99940900289e-01+j1.08717951165e-02
  -9.99937972264e-01+j1.11378464463e-02
  -9.99934896077e-01+j1.14106795367e-02
  -9.99931663917e-01+j1.16904874068e-02
  -9.99928267533e-01+j1.19774700388e-02
  -9.99924698201e-01+j1.22718347289e-02
  -9.99920946696e-01+j1.25737964626e-02
  -9.99917003260e-01+j1.28835783142e-02
  -9.99912857565e-01+j1.32014118753e-02
  -9.99908498675e-01+j1.35275377120e-02
  -9.99903915007e-01+j1.38622058546e-02
  -9.99899094288e-01+j1.42056763228e-02
  -9.99894023503e-01+j1.45582196884e-02
  -9.99888688848e-01+j1.49201176787e-02
  -9.99883075671e-01+j1.52916638257e-02
  -9.99877168417e-01+j1.56731641630e-02
  -9.99870950555e-01+j1.60649379756e-02
  -9.99864404513e-01+j1.64673186081e-02
  -9.99857511600e-01+j1.68806543347e-02
  -9.99850251919e-01+j1.73053092981e-02
  -9.99842604279e-01+j1.77416645234e-02
  -9.99834546093e-01+j1.81901190130e-02
  -9.99826053269e-01+j1.86510909322e-02
  -9.99817100094e-01+j1.91250188914e-02
  -9.99807659097e-01+j1.96123633367e-02
  -9.99797700914e-01+j2.01136080583e-02
  -9.99787194125e-01+j2.06292618285e-02
  -9.99776105082e-01+j2.11598601823e-02
  -9.99764397723e-01+j2.17059673553e-02
  -9.99752033356e-01+j2.22681783956e-02
  -9.99738970434e-01+j2.28471214663e-02
  -9.99725164294e-01+j2.34434603608e-02
  -9.99710566879e-01+j2.40578972527e-02
  -9.99695126418e-01+j2.46911757059e-02
  -9.99678787081e-01+j2.53440839742e-02
  -9.99661488588e-01+j2.60174586231e-02
  -9.99643165780e-01+j2.67121885097e-02
  -9.99623748130e-01+j2.74292191641e-02
  -9.99603159206e-01+j2.81695576179e-02
  -9.99581316062e-01+j2.89342777347e-02
  -9.99558128559e-01+j2.97245261034e-02
  -9.99533498600e-01+j3.05415285653e-02
  -9.99507319259e-01+j3.13865974533e-02
  -9.99479473815e-01+j3.22611396376e-02
  -9.99449834637e-01+j3.31666654812e-02
  -9.99418261935e-01+j3.41047988293e-02
  -9.99384602329e-01+j3.50772881715e-02
  -9.99348687221e-01+j3.60860191419e-02
  -9.99310330934e-01+j3.71330285457e-02
  -9.99269328576e-01+j3.82205201344e-02
  -9.99225453586e-01+j3.93508823868e-02
  -9.99178454903e-01+j4.05267086016e-02
  -9.99128053698e-01+j4.17508196562e-02
  -9.99073939575e-01+j4.30262898545e-02
  -9.99015766157e-01+j4.43564763623e-02
  -9.98953145932e-01+j4.57450528257e-02
  -9.98885644206e-01+j4.71960478795e-02
  -9.98812772003e-01+j4.87138893977e-02
  -9.98733977676e-01+j5.03034555089e-02
  -9.98648636962e-01+j5.19701336131e-02
  -9.98556041145e-01+j5.37198889067e-02
  -9.98455382901e-01+j5.55593442478e-02
  -9.98345739288e-01+j5.74958736186e-02
  -9.98226051208e-01+j5.95377119637e-02
  -9.98095098477e-01+j6.16940848552e-02
  -9.97951469386e-01+j6.39753622944e-02
  -9.97793523335e-01+j6.63932420660e-02
  -9.97619344646e-01+j6.89609694952e-02
  -9.97426685119e-01+j7.16936023437e-02
  -9.97212892057e-01+j7.46083320607e-02
  -9.96974817394e-01+j7.77248759172e-02
  -9.96708702043e-01+j8.10659590021e-02
  -9.96410027381e-01+j8.46579111149e-02
  -9.96073322754e-01+j8.85314119033e-02
  -9.95691913396e-01+j9.27224291723e-02
  -9.95257586657e-01+j9.72734115952e-02
  -9.94760144720e-01+j1.02234820361e-01
  -9.94186797268e-01+j1.07667118114e-01
  -9.93521324878e-01+j1.13643383423e-01
  -9.92742908113e-01+j1.20252794008e-01
  -9.91824459650e-01+j1.27605336868e-01
  -9.90730201387e-01+j1.35838283714e-01
  -9.89412066304e-01+j1.45125259767e-01
  -9.87804219932e-01+j1.55689212860e-01
  -9.85814477408e-01+j1.67821406768e-01
  -9.83310406488e-01+j1.81910007802e-01
  -9.80095941583e-01+j1.98484498297e-01
  -9.75870182811e-01+j2.18287307261e-01
  -9.70150659261e-01+j2.42394611485e-01
  -9.62120190625e-01+j2.72431410064e-01
  -9.50293025989e-01+j3.10980963507e-01
  -9.31695948250e-01+j3.62432230511e-01
  -8.99498236285e-01+j4.34922224354e-01
  -8.34218590481e-01+j5.45227371198e-01
  -6.55304046758e-01+j7.26824930185e-01
  +7.51385430576e-02+j6.73384708220e-01
  -3.98006528480e-01+j5.63242963861e-02
  -1.52712052591e-01+j2.60821461409e-01
  -1.42795961033e-01-j2.50426376781e-01
  -3.92459950978e-01-j5.78133333502e-02
  +8.24162207168e-02-j6.67872250886e-01
  -6.51667884015e-01-j7.29623941068e-01
  -8.32863751986e-01-j5.47215871284e-01
  -8.98832695184e-01-j4.36275264223e-01
  -9.31314790785e-01-j3.63403479424e-01
  -9.50052865820e-01-j3.11711033411e-01
  -9.61958577991e-01-j2.73000215405e-01
  -9.70036496951e-01-j2.42850421973e-01
  -9.75786460032e-01-j2.18660909709e-01
  -9.80032677632e-01-j1.98796434105e-01
  -9.83261416837e-01-j1.82174502013e-01
  -9.85775757753e-01-j1.68048620849e-01
  -9.87773081996e-01-j1.55886598385e-01
  -9.89386649549e-01-j1.45298405050e-01
  -9.90709184257e-01-j1.35991461785e-01
  -9.91806882110e-01-j1.27741870846e-01
  -9.92728058932e-01-j1.20375307099e-01
  -9.93508667945e-01-j1.13753973924e-01
  -9.94175922209e-01-j1.07767484406e-01
  -9.94750733050e-01-j1.02326351820e-01
  -9.95249388119e-01-j9.73572557768e-02
  -9.95684729122e-01-j9.27995422055e-02
  -9.96066993089e-01-j8.86025967845e-02
  -9.96404422946e-01-j8.47238471666e-02
  -9.96703717090e-01-j8.11272247836e-02
  -9.96970364804e-01-j7.77819672260e-02
  -9.97208899530e-01-j7.46616762097e-02
  -9.97423092249e-01-j7.17435695818e-02
  -9.97616100640e-01-j6.90078822185e-02
  -9.97790585237e-01-j6.64373823007e-02
  -9.97948800663e-01-j6.40169778199e-02
  -9.98092667900e-01-j6.17333942462e-02
  -9.98223831953e-01-j5.95749087684e-02
  -9.98343708208e-01-j5.75311298395e-02
  -9.98453519938e-01-j5.55928132588e-02
  -9.98554328846e-01-j5.37517079095e-02
  -9.98647060082e-01-j5.20004257150e-02
  -9.98732522851e-01-j5.03323314893e-02
  -9.98811427477e-01-j4.87414492163e-02
  -9.98884399604e-01-j4.72223819681e-02
  -9.98951992069e-01-j4.57702432006e-02
  -9.99014694877e-01-j4.43805975843e-02
  -9.99072943615e-01-j4.30494098608e-02
  -9.99127126574e-01-j4.17730004842e-02
  -9.99177590810e-01-j4.05480070194e-02
  -9.99224647314e-01-j3.93713504457e-02
  -9.99268575440e-01-j3.82402056531e-02
  -9.99309626709e-01-j3.71519755362e-02
  -9.99348028089e-01-j3.61042681853e-02
  -9.99383984834e-01-j3.50948767508e-02
  -9.99417682941e-01-j3.41217616236e-02
  -9.99449291294e-01-j3.31830346277e-02
  -9.99478963526e-01-j3.22769449647e-02
  -9.99506839657e-01-j3.14018666889e-02
  -9.99533047519e-01-j3.05562875224e-02
  -9.99557704019e-01-j2.97387988472e-02
  -9.99580916246e-01-j2.89480867321e-02
  -9.99602782445e-01-j2.81829238720e-02
  -9.99623392891e-01-j2.74421623357e-02
  -9.99642830651e-01-j2.67247270265e-02
  -9.99661172265e-01-j2.60296097789e-02
  -9.99678488361e-01-j2.53558640183e-02
  -9.99694844189e-01-j2.47025999242e-02
  -9.99710300112e-01-j2.40689800417e-02
  -9.99724912034e-01-j2.34542152945e-02
  -9.99738731795e-01-j2.28575613575e-02
  -9.99751807517e-01-j2.22783153513e-02
  -9.99764183918e-01-j2.17158128278e-02
  -9.99775902601e-01-j2.11694250156e-02
  -9.99787002303e-01-j2.06385563008e-02
  -9.99797519133e-01-j2.01226419211e-02
  -9.99807486780e-01-j1.96211458504e-02
  -9.99816936700e-01-j1.91335588585e-02
  -9.99825898296e-01-j1.86593967272e-02
  -9.99834399067e-01-j1.81981986103e-02
  -9.99842464759e-01-j1.77495255229e-02
  -9.99850119491e-01-j1.73129589491e-02
  -9.99857385874e-01-j1.68880995573e-02
  -9.99864285125e-01-j1.64745660136e-02
