<Qucs Dataset 0.0.18>
<indep frequency 200>
  +8.00000000000e+05
  +8.18754755917e+05
  +8.37949187922e+05
  +8.57593603535e+05
  +8.77698551923e+05
  +8.98274829561e+05
  +9.19333486030e+05
  +9.40885829952e+05
  +9.62943435061e+05
  +9.85518146419e+05
  +1.00862208678e+06
  +1.03226766309e+06
  +1.05646757317e+06
  +1.08123481251e+06
  +1.10658268126e+06
  +1.13252479137e+06
  +1.15907507391e+06
  +1.18624778653e+06
  +1.21405752115e+06
  +1.24251921175e+06
  +1.27164814242e+06
  +1.30145995558e+06
  +1.33197066033e+06
  +1.36319664111e+06
  +1.39515466645e+06
  +1.42786189800e+06
  +1.46133589972e+06
  +1.49559464737e+06
  +1.53065653807e+06
  +1.56654040027e+06
  +1.60326550383e+06
  +1.64085157032e+06
  +1.67931878369e+06
  +1.71868780106e+06
  +1.75897976382e+06
  +1.80021630899e+06
  +1.84241958083e+06
  +1.88561224275e+06
  +1.92981748946e+06
  +1.97505905944e+06
  +2.02136124767e+06
  +2.06874891869e+06
  +2.11724751997e+06
  +2.16688309554e+06
  +2.21768229999e+06
  +2.26967241279e+06
  +2.32288135293e+06
  +2.37733769393e+06
  +2.43307067916e+06
  +2.49011023755e+06
  +2.54848699969e+06
  +2.60823231424e+06
  +2.66937826478e+06
  +2.73195768704e+06
  +2.79600418653e+06
  +2.86155215661e+06
  +2.92863679692e+06
  +2.99729413229e+06
  +3.06756103212e+06
  +3.13947523014e+06
  +3.21307534470e+06
  +3.28840089950e+06
  +3.36549234478e+06
  +3.44439107912e+06
  +3.52513947158e+06
  +3.60778088454e+06
  +3.69235969691e+06
  +3.77892132800e+06
  +3.86751226192e+06
  +3.95818007252e+06
  +4.05097344894e+06
  +4.14594222177e+06
  +4.24313738979e+06
  +4.34261114738e+06
  +4.44441691252e+06
  +4.54860935551e+06
  +4.65524442829e+06
  +4.76437939453e+06
  +4.87607286033e+06
  +4.99038480575e+06
  +5.10737661695e+06
  +5.22711111924e+06
  +5.34965261073e+06
  +5.47506689693e+06
  +5.60342132603e+06
  +5.73478482512e+06
  +5.86922793717e+06
  +6.00682285890e+06
  +6.14764347960e+06
  +6.29176542076e+06
  +6.43926607670e+06
  +6.59022465615e+06
  +6.74472222473e+06
  +6.90284174855e+06
  +7.06466813871e+06
  +7.23028829694e+06
  +7.39979116221e+06
  +7.57326775857e+06
  +7.75081124396e+06
  +7.93251696026e+06
  +8.11848248451e+06
  +8.30880768128e+06
  +8.50359475632e+06
  +8.70294831141e+06
  +8.90697540059e+06
  +9.11578558759e+06
  +9.32949100471e+06
  +9.54820641299e+06
  +9.77204926390e+06
  +1.00011397623e+07
  +1.02356009313e+07
  +1.04755586777e+07
  +1.07211418603e+07
  +1.09724823587e+07
  +1.12297151443e+07
  +1.14929783525e+07
  +1.17624133572e+07
  +1.20381648466e+07
  +1.23203809008e+07
  +1.26092130716e+07
  +1.29048164634e+07
  +1.32073498171e+07
  +1.35169755948e+07
  +1.38338600673e+07
  +1.41581734035e+07
  +1.44900897615e+07
  +1.48297873824e+07
  +1.51774486857e+07
  +1.55332603676e+07
  +1.58974135011e+07
  +1.62701036386e+07
  +1.66515309167e+07
  +1.70419001642e+07
  +1.74414210116e+07
  +1.78503080040e+07
  +1.82687807161e+07
  +1.86970638701e+07
  +1.91353874567e+07
  +1.95839868581e+07
  +2.00431029749e+07
  +2.05129823551e+07
  +2.09938773266e+07
  +2.14860461328e+07
  +2.19897530714e+07
  +2.25052686358e+07
  +2.30328696610e+07
  +2.35728394717e+07
  +2.41254680349e+07
  +2.46910521154e+07
  +2.52698954351e+07
  +2.58623088363e+07
  +2.64686104484e+07
  +2.70891258589e+07
  +2.77241882883e+07
  +2.83741387688e+07
  +2.90393263275e+07
  +2.97201081741e+07
  +3.04168498924e+07
  +3.11299256368e+07
  +3.18597183331e+07
  +3.26066198842e+07
  +3.33710313808e+07
  +3.41533633161e+07
  +3.49540358070e+07
  +3.57734788194e+07
  +3.66121323989e+07
  +3.74704469073e+07
  +3.83488832646e+07
  +3.92479131963e+07
  +4.01680194866e+07
  +4.11096962381e+07
  +4.20734491366e+07
  +4.30597957230e+07
  +4.40692656713e+07
  +4.51024010727e+07
  +4.61597567270e+07
  +4.72419004403e+07
  +4.83494133301e+07
  +4.94828901373e+07
  +5.06429395455e+07
  +5.18301845082e+07
  +5.30452625827e+07
  +5.42888262731e+07
  +5.55615433803e+07
  +5.68640973609e+07
  +5.81971876940e+07
  +5.95615302569e+07
  +6.09578577094e+07
  +6.23869198877e+07
  +6.38494842063e+07
  +6.53463360710e+07
  +6.68782792999e+07
  +6.84461365555e+07
  +7.00507497862e+07
  +7.16929806788e+07
  +7.33737111208e+07
  +7.50938436744e+07
  +7.68543020606e+07
  +7.86560316561e+07
  +8.05000000000e+07
</indep>
<dep dBS11 frequency>
  -6.58274910661e+01
  -6.56220779464e+01
  -6.54164665094e+01
  -6.52106471402e+01
  -6.50046097473e+01
  -6.47983437376e+01
  -6.45918379913e+01
  -6.43850808330e+01
  -6.41780600043e+01
  -6.39707626316e+01
  -6.37631751947e+01
  -6.35552834920e+01
  -6.33470726042e+01
  -6.31385268555e+01
  -6.29296297737e+01
  -6.27203640460e+01
  -6.25107114740e+01
  -6.23006529244e+01
  -6.20901682777e+01
  -6.18792363739e+01
  -6.16678349533e+01
  -6.14559405952e+01
  -6.12435286518e+01
  -6.10305731783e+01
  -6.08170468573e+01
  -6.06029209204e+01
  -6.03881650617e+01
  -6.01727473479e+01
  -5.99566341206e+01
  -5.97397898926e+01
  -5.95221772368e+01
  -5.93037566666e+01
  -5.90844865084e+01
  -5.88643227639e+01
  -5.86432189628e+01
  -5.84211260038e+01
  -5.81979919841e+01
  -5.79737620138e+01
  -5.77483780183e+01
  -5.75217785221e+01
  -5.72938984165e+01
  -5.70646687063e+01
  -5.68340162376e+01
  -5.66018633989e+01
  -5.63681277981e+01
  -5.61327219092e+01
  -5.58955526877e+01
  -5.56565211495e+01
  -5.54155219093e+01
  -5.51724426755e+01
  -5.49271636943e+01
  -5.46795571373e+01
  -5.44294864261e+01
  -5.41768054865e+01
  -5.39213579213e+01
  -5.36629760914e+01
  -5.34014800948e+01
  -5.31366766261e+01
  -5.28683577018e+01
  -5.25962992303e+01
  -5.23202594052e+01
  -5.20399768917e+01
  -5.17551687767e+01
  -5.14655282421e+01
  -5.11707219165e+01
  -5.08703868485e+01
  -5.05641270374e+01
  -5.02515094368e+01
  -4.99320593388e+01
  -4.96052550098e+01
  -4.92705214373e+01
  -4.89272229968e+01
  -4.85746548119e+01
  -4.82120325143e+01
  -4.78384800341e+01
  -4.74530149499e+01
  -4.70545307868e+01
  -4.66417754627e+01
  -4.62133248370e+01
  -4.57675499561e+01
  -4.53025761062e+01
  -4.48162310811e+01
  -4.43059790650e+01
  -4.37688350488e+01
  -4.32012524647e+01
  -4.25989733088e+01
  -4.19568246404e+01
  -4.12684366485e+01
  -4.05258429596e+01
  -3.97188987383e+01
  -3.88344068235e+01
  -3.78547563110e+01
  -3.67557057161e+01
  -3.55025718710e+01
  -3.40432141479e+01
  -3.22939146452e+01
  -3.01072786276e+01
  -2.71849827407e+01
  -2.27588298200e+01
  -1.33367866704e+01
  -1.32198640472e+01
  -2.27222511831e+01
  -2.71631681210e+01
  -3.00917099197e+01
  -3.22817980075e+01
  -3.40332868974e+01
  -3.54941559500e+01
  -3.67483949100e+01
  -3.78482880254e+01
  -3.88286015057e+01
  -3.97136281980e+01
  -4.05210124835e+01
  -4.12639742785e+01
  -4.19526744258e+01
  -4.25950908883e+01
  -4.31976020743e+01
  -4.37653874366e+01
  -4.43027100030e+01
  -4.48131202783e+01
  -4.52996064014e+01
  -4.57647067068e+01
  -4.62105954520e+01
  -4.66391490366e+01
  -4.70519978135e+01
  -4.74505670943e+01
  -4.78361099487e+01
  -4.82097336905e+01
  -4.85724214578e+01
  -4.89250499365e+01
  -4.92684040282e+01
  -4.96031890723e+01
  -4.99300410977e+01
  -5.02495354717e+01
  -5.05621942403e+01
  -5.08684923881e+01
  -5.11688632064e+01
  -5.14637029146e+01
  -5.17533746592e+01
  -5.20382119867e+01
  -5.23185218726e+01
  -5.25945873716e+01
  -5.28666699468e+01
  -5.31350115211e+01
  -5.33998362911e+01
  -5.36613523366e+01
  -5.39197530505e+01
  -5.41752184150e+01
  -5.44279161423e+01
  -5.46780026971e+01
  -5.49256242155e+01
  -5.51709173327e+01
  -5.54140099295e+01
  -5.56550218082e+01
  -5.58940653056e+01
  -5.61312458480e+01
  -5.63666624585e+01
  -5.66004082171e+01
  -5.68325706830e+01
  -5.70632322794e+01
  -5.72924706465e+01
  -5.75203589655e+01
  -5.77469662562e+01
  -5.79723576509e+01
  -5.81965946470e+01
  -5.84197353402e+01
  -5.86418346389e+01
  -5.88629444643e+01
  -5.90831139349e+01
  -5.93023895365e+01
  -5.95208152827e+01
  -5.97384328611e+01
  -5.99552817715e+01
  -6.01713994535e+01
  -6.03868214062e+01
  -6.06015812987e+01
  -6.08157110754e+01
  -6.10292410514e+01
  -6.12422000050e+01
  -6.14546152621e+01
  -6.16665127760e+01
  -6.18779172021e+01
  -6.20888519690e+01
  -6.22993393430e+01
  -6.25094004911e+01
  -6.27190555390e+01
  -6.29283236259e+01
  -6.31372229562e+01
  -6.33457708478e+01
  -6.35539837782e+01
  -6.37618774278e+01
  -6.39694667207e+01
  -6.41767658628e+01
  -6.43837883786e+01
  -6.45905471454e+01
  -6.47970544258e+01
  -6.50033218980e+01
  -6.52093606857e+01
  -6.54151813852e+01
  -6.56207940908e+01
  -6.58262084206e+01
</dep>
<dep dBS21 frequency>
  -1.13510297252e-06
  -1.19008114713e-06
  -1.24777914520e-06
  -1.30833712077e-06
  -1.37190299606e-06
  -1.43863297399e-06
  -1.50869199814e-06
  -1.58225438782e-06
  -1.65950434957e-06
  -1.74063669711e-06
  -1.82585751525e-06
  -1.91538489323e-06
  -2.00944975508e-06
  -2.10829670914e-06
  -2.21218501001e-06
  -2.32138953587e-06
  -2.43620194476e-06
  -2.55693182066e-06
  -2.68390795894e-06
  -2.81747982688e-06
  -2.95801903084e-06
  -3.10592100922e-06
  -3.26160684197e-06
  -3.42552518749e-06
  -3.59815448324e-06
  -3.78000530209e-06
  -3.97162287835e-06
  -4.17359002206e-06
  -4.38653014794e-06
  -4.61111074071e-06
  -4.84804710009e-06
  -5.09810645470e-06
  -5.36211258938e-06
  -5.64095086989e-06
  -5.93557383171e-06
  -6.24700744634e-06
  -6.57635792369e-06
  -6.92481947792e-06
  -7.29368283823e-06
  -7.68434479675e-06
  -8.09831889728e-06
  -8.53724741337e-06
  -9.00291475217e-06
  -9.49726259796e-06
  -1.00224069477e-05
  -1.05806573391e-05
  -1.11745386307e-05
  -1.18068157657e-05
  -1.24805218328e-05
  -1.31989901209e-05
  -1.39658907439e-05
  -1.47852726312e-05
  -1.56616116909e-05
  -1.65998663974e-05
  -1.76055419917e-05
  -1.86847648463e-05
  -1.98443689971e-05
  -2.10919971191e-05
  -2.24362186154e-05
  -2.38866685106e-05
  -2.54542112214e-05
  -2.71511344083e-05
  -2.89913796485e-05
  -3.09908177941e-05
  -3.31675794455e-05
  -3.55424534747e-05
  -3.81393699686e-05
  -4.09859888015e-05
  -4.41144209645e-05
  -4.75621182605e-05
  -5.13729773496e-05
  -5.55987197769e-05
  -6.03006294014e-05
  -6.55517571158e-05
  -7.14397423967e-05
  -7.80704566768e-05
  -8.55727544149e-05
  -9.41047337450e-05
  -1.03862081175e-04
  -1.15089332216e-04
  -1.28095273544e-04
  -1.43274323630e-04
  -1.61136698644e-04
  -1.82351745156e-04
  -2.07811441748e-04
  -2.38725557735e-04
  -2.76767879015e-04
  -3.24307402434e-04
  -3.84785993047e-04
  -4.63359002460e-04
  -5.68030990125e-04
  -7.11777521587e-04
  -9.16768277705e-04
  -1.22345583215e-03
  -1.71217638389e-03
  -2.56165667596e-03
  -4.23904848320e-03
  -8.31192406722e-03
  -2.30703581449e-02
  -2.06241914781e-01
  -2.12009468398e-01
  -2.32660134246e-02
  -8.35382019214e-03
  -4.25427947030e-03
  -2.56881568891e-03
  -1.71609538550e-03
  -1.22582932429e-03
  -9.18313005787e-04
  -7.12838504119e-04
  -5.68790848133e-04
  -4.63921700225e-04
  -3.85214231519e-04
  -3.24640811578e-04
  -2.77032499426e-04
  -2.38939070200e-04
  -2.07986191816e-04
  -1.82496564145e-04
  -1.61258038878e-04
  -1.43376987878e-04
  -1.28182896309e-04
  -1.15164704845e-04
  -1.03927376071e-04
  -9.41616620693e-05
  -8.56226788030e-05
  -7.81144730788e-05
  -7.14787403346e-05
  -6.55864646653e-05
  -6.03316471045e-05
  -5.56265465998e-05
  -5.13980305911e-05
  -4.75847490498e-05
  -4.41349265626e-05
  -4.10046221616e-05
  -3.81563474817e-05
  -3.55579610914e-05
  -3.31817777272e-05
  -3.10038459328e-05
  -2.90033588198e-05
  -2.71621704824e-05
  -2.54643970478e-05
  -2.38960858045e-05
  -2.24449394889e-05
  -2.11000854594e-05
  -1.98518815373e-05
  -1.86917520822e-05
  -1.76120490747e-05
  -1.66059337125e-05
  -1.56672755089e-05
  -1.47905655746e-05
  -1.39708422289e-05
  -1.32036267357e-05
  -1.24848676396e-05
  -1.18108926182e-05
  -1.11783663812e-05
  -1.05842540554e-05
  -1.00257891518e-05
  -9.50044537110e-06
  -9.00591188333e-06
  -8.54007156907e-06
  -8.10098171077e-06
  -7.68685695428e-06
  -7.29605418132e-06
  -6.92705909539e-06
  -6.57847419366e-06
  -6.24900813121e-06
  -5.93746612492e-06
  -5.64274139977e-06
  -5.36380752911e-06
  -5.09971155940e-06
  -4.84956769191e-06
  -4.61255179366e-06
  -4.38789628311e-06
  -4.17488555338e-06
  -3.97285184491e-06
  -3.78117145225e-06
  -3.59926135514e-06
  -3.42657607334e-06
  -3.26260482376e-06
  -3.10686899683e-06
  -2.95891972102e-06
  -2.81833577317e-06
  -2.68472155240e-06
  -2.55770530528e-06
  -2.43693746377e-06
  -2.32208906855e-06
  -2.21285042474e-06
  -2.10892978850e-06
  -2.01005216495e-06
  -1.91595819774e-06
  -1.82640319850e-06
  -1.74115616896e-06
  -1.65999892824e-06
  -1.58272533948e-06
  -1.50914049929e-06
  -1.43906012587e-06
  -1.37230988066e-06
  -1.30872473617e-06
  -1.24814843161e-06
  -1.19043301586e-06
  -1.13543826541e-06
</dep>
<dep S[2,2] frequency>
  +2.09421962272e-07+j5.11240687571e-04
  +2.19565228166e-07+j5.23475143326e-04
  +2.30210292052e-07+j5.36014618862e-04
  +2.41383012856e-07+j5.48867607745e-04
  +2.53110683079e-07+j5.62042903411e-04
  +2.65422117507e-07+j5.75549613926e-04
  +2.78347752847e-07+j5.89397177815e-04
  +2.91919745266e-07+j6.03595380820e-04
  +3.06172085129e-07+j6.18154373859e-04
  +3.21140715687e-07+j6.33084692211e-04
  +3.36863655526e-07+j6.48397276003e-04
  +3.53381143903e-07+j6.64103492083e-04
  +3.70735784461e-07+j6.80215157545e-04
  +3.88972708598e-07+j6.96744564820e-04
  +4.08139746444e-07+j7.13704508634e-04
  +4.28287616372e-07+j7.31108314925e-04
  +4.49470125730e-07+j7.48969871893e-04
  +4.71744391328e-07+j7.67303663414e-04
  +4.95171080972e-07+j7.86124804904e-04
  +5.19814666422e-07+j8.05449081984e-04
  +5.45743710723e-07+j8.25292992150e-04
  +5.73031173012e-07+j8.45673789693e-04
  +6.01754737206e-07+j8.66609534196e-04
  +6.31997186584e-07+j8.88119142886e-04
  +6.63846791371e-07+j9.10222447397e-04
  +6.97397750493e-07+j9.32940254973e-04
  +7.32750663479e-07+j9.56294415056e-04
  +7.70013055651e-07+j9.80307891262e-04
  +8.09299950166e-07+j1.00500483973e-03
  +8.50734497293e-07+j1.03041069408e-03
  +8.94448668354e-07+j1.05655225807e-03
  +9.40584022668e-07+j1.08345780631e-03
  +9.89292548548e-07+j1.11115719419e-03
  +1.04073759516e-06+j1.13968197793e-03
  +1.09509491286e-06+j1.16906554570e-03
  +1.15255378785e-06+j1.19934326116e-03
  +1.21331832570e-06+j1.23055262075e-03
  +1.27760886021e-06+j1.26273342636e-03
  +1.34566353538e-06+j1.29592797480e-03
  +1.41774006346e-06+j1.33018126657e-03
  +1.49411770034e-06+j1.36554123572e-03
  +1.57509945070e-06+j1.40205900349e-03
  +1.66101454724e-06+j1.43978915876e-03
  +1.75222124005e-06+j1.47879006842e-03
  +1.84910994050e-06+j1.51912422156e-03
  +1.95210677018e-06+j1.56085861181e-03
  +2.06167758504e-06+j1.60406516284e-03
  +2.17833253069e-06+j1.64882120263e-03
  +2.30263123047e-06+j1.69520999334e-03
  +2.43518870296e-06+j1.74332132445e-03
  +2.57668211073e-06+j1.79325217790e-03
  +2.72785851402e-06+j1.84510747592e-03
  +2.88954375455e-06+j1.89900092349e-03
  +3.06265271965e-06+j1.95505595987e-03
  +3.24820117159e-06+j2.01340683580e-03
  +3.44731948881e-06+j2.07419983614e-03
  +3.66126862594e-06+j2.13759467156e-03
  +3.89145873408e-06+j2.20376606685e-03
  +4.13947097322e-06+j2.27290557910e-03
  +4.40708312049e-06+j2.34522368548e-03
  +4.69629979927e-06+j2.42095218840e-03
  +5.00938825060e-06+j2.50034699564e-03
  +5.34892089132e-06+j2.58369134553e-03
  +5.71782612835e-06+j2.67129956248e-03
  +6.11944934265e-06+j2.76352144720e-03
  +6.55762642282e-06+j2.86074743073e-03
  +7.03677287917e-06+j2.96341465150e-03
  +7.56199245816e-06+j3.07201415439e-03
  +8.13921025433e-06+j3.18709946085e-03
  +8.77533686550e-06+j3.30929682482e-03
  +9.47847214605e-06+j3.43931757445e-03
  +1.02581598591e-05+j3.57797305161e-03
  +1.11257082928e-05+j3.72619281028e-03
  +1.20945971170e-05+j3.88504693469e-03
  +1.31809980493e-05+j4.05577360767e-03
  +1.44044472173e-05+j4.23981342905e-03
  +1.57887219117e-05+j4.43885249398e-03
  +1.73629959528e-05+j4.65487695621e-03
  +1.91633796464e-05+j4.89024281457e-03
  +2.12349978828e-05+j5.14776611913e-03
  +2.36348325902e-05+j5.43084092506e-03
  +2.64356685271e-05+j5.74359549107e-03
  +2.97316604571e-05+j6.09110201362e-03
  +3.36463304048e-05+j6.47966260275e-03
  +3.83442873220e-05+j6.91720591663e-03
  +4.40487895212e-05+j7.41384785473e-03
  +5.10687323907e-05+j7.98270133681e-03
  +5.98413186854e-05+j8.64107458489e-03
  +7.10017615520e-05+j9.41229424859e-03
  +8.55015229558e-05+j1.03285696609e-02
  +1.04817934909e-04+j1.14356647843e-02
  +1.31345824005e-04+j1.28008651918e-02
  +1.69176976548e-04+j1.45273121204e-02
  +2.25777634807e-04+j1.67815512906e-02
  +3.15975100200e-04+j1.98510865679e-02
  +4.72754487143e-04+j2.42785054607e-02
  +7.82318459182e-04+j3.12248099141e-02
  +1.53379837063e-03+j4.37002103623e-02
  +4.25361304448e-03+j7.26633921107e-02
  +3.73970485269e-02+j2.12085962925e-01
  +3.80881886936e-02-j2.14927615777e-01
  +4.27387533535e-03-j7.29699072581e-02
  +1.53806387902e-03-j4.38100870790e-02
  +7.83861587329e-04-j3.12808243827e-02
  +4.73478326781e-04-j2.43123958665e-02
  +3.16370935330e-04-j1.98737871323e-02
  +2.26017223831e-04-j1.67978188506e-02
  +1.69332848485e-04-j1.45395445708e-02
  +1.31452856315e-04-j1.28104013100e-02
  +1.04894576138e-04-j1.14433104417e-02
  +8.55582708061e-05-j1.03348388303e-02
  +7.10449450676e-05-j9.41753012740e-03
  +5.98749371264e-05-j8.64551505199e-03
  +5.10954131370e-05-j7.98651645711e-03
  +4.40703162272e-05-j7.41716242755e-03
  +3.83619052625e-05-j6.92011359082e-03
  +3.36609303019e-05-j6.48223502109e-03
  +2.97438930276e-05-j6.09339491559e-03
  +2.64460181039e-05-j5.74565289201e-03
  +2.36436656720e-05-j5.43269804325e-03
  +2.12425959282e-05-j5.14945146794e-03
  +1.91699616992e-05-j4.89177972492e-03
  +1.73687345476e-05-j4.65628470186e-03
  +1.57937544296e-05-j4.44014713645e-03
  +1.44088841514e-05-j4.24100845950e-03
  +1.31849290816e-05-j4.05688044092e-03
  +1.20980956490e-05-j3.88607529360e-03
  +1.11288348679e-05-j3.72715102777e-03
  +1.02609647772e-05-j3.57886831024e-03
  +9.48099747339e-06-j3.44015609820e-03
  +8.77761800572e-06-j3.31008403365e-03
  +8.14127716997e-06-j3.18784009639e-03
  +7.56387065071e-06-j3.07271238275e-03
  +7.03848415967e-06-j2.96407414794e-03
  +6.55918953746e-06-j2.86137144986e-03
  +6.12088047663e-06-j2.76411288144e-03
  +5.71913931335e-06-j2.67186099111e-03
  +5.35012834063e-06-j2.58422507588e-03
  +5.01050063839e-06-j2.50085509808e-03
  +4.69732648301e-06-j2.42143652599e-03
  +4.40803233709e-06-j2.34568593932e-03
  +4.14034999291e-06-j2.27334727008e-03
  +3.89227399700e-06-j2.20418857425e-03
  +3.66202584778e-06-j2.13799924930e-03
  +3.44802376551e-06-j2.07458762669e-03
  +3.24885704839e-06-j2.01377888239e-03
  +3.06326427030e-06-j1.95541321706e-03
  +2.89011463561e-06-j1.89934426647e-03
  +2.72839201104e-06-j1.84543770865e-03
  +2.57718119073e-06-j1.79357004031e-03
  +2.43565604369e-06-j1.74362749871e-03
  +2.30306926069e-06-j1.69550510946e-03
  +2.17874344965e-06-j1.64910584342e-03
  +2.06206339681e-06-j1.60433986837e-03
  +1.95246929607e-06-j1.56112388322e-03
  +1.84945084430e-06-j1.51938052464e-03
  +1.75254204132e-06-j1.47903783677e-03
  +1.66131663815e-06-j1.44002879647e-03
  +1.57538410683e-06-j1.40229088780e-03
  +1.49438609381e-06-j1.36576571920e-03
  +1.41799327158e-06-j1.33039867916e-03
  +1.34590255052e-06-j1.29613862570e-03
  +1.27783459869e-06-j1.26293760569e-03
  +1.21353163191e-06-j1.23075060103e-03
  +1.15275544310e-06-j1.19953529866e-03
  +1.09528564063e-06-j1.16925188175e-03
  +1.04091806724e-06-j1.13986283996e-03
  +9.89463387002e-07-j1.11133279685e-03
  +9.40745805700e-07-j1.08362835236e-03
  +8.94601932921e-07-j1.05671793924e-03
  +8.50879744441e-07-j1.03057169186e-03
  +8.09437646465e-07-j1.00516132607e-03
  +7.70143636086e-07-j9.80460029276e-04
  +7.32874533727e-07-j9.56442359566e-04
  +6.97515291026e-07-j9.33084153103e-04
  +6.63958356517e-07-j9.10362439067e-04
  +6.32103107967e-07-j8.88255361295e-04
  +6.01855326743e-07-j8.66742106223e-04
  +5.73126720749e-07-j8.45802836336e-04
  +5.45834493271e-07-j8.25418628877e-04
  +5.19900938245e-07-j8.05571419055e-04
